Opening SLcan interface /dev/cu.usbmodem2057326E55481 at 500000bps
🚀 TESLA RADAR ACTIVATOR - COMPLETE IMPLEMENTATION
======================================================================
Based on working Panda safety layer implementation
Features:
  ✅ Complete Tesla protocol with proper timing
  ✅ 13 Tesla messages at correct frequencies
  ✅ Proper VIN transmission (3-part protocol)
  ✅ CRC/checksum validation
  ✅ 0x631 initialization detection
  ✅ Enhanced radar monitoring
  ✅ OpenPilot-style object validation

🎯 Configuration:
   VIN: 5YJSB7E43GF113105
   Position: 0
   EPAS Type: 0
   Speed: 30 km/h
   Duration: 5s

👁️  Starting enhanced radar monitoring...
🎯 RADAR STATUS (0x300): State=3, Scan=160, Power=192
🚀 Tesla Radar Protocol Started
   VIN: 5YJSB7E43GF113105
   Position: 0, EPAS: 0
   Speed: 30 km/h
TX: 0x199 = 2f7d200004ff009a
🔍 MONITORING FOR RADAR ACTIVATION...
Looking for:
  1. 0x631 radar initialization signal
  2. 0x300 radar status confirmation
  3. VIN transmission completion (7 cycles)
  4. Plant mode → Active transition
  5. Dynamic scan index changes
  6. Valid object detection

TX: 0x169 = 000000980000000e
CAN decode error: non-hexadecimal number found in fromhex() arg at position 11
TX: 0x119 = ff1ff41180ba
TX: 0x109 = 0000008000000087
CAN decode error: non-hexadecimal number found in fromhex() arg at position 15
CAN decode error: non-hexadecimal number found in fromhex() arg at position 15
CAN decode error: non-hexadecimal number found in fromhex() arg at position 15
TX: 0x159 = fbff4f5bff070000
TX: 0x149 = 0026026aaa040f95
CAN decode error: non-hexadecimal number found in fromhex() arg at position 15
TX: 0x129 = 000000200036
TX: 0x1A9 = 00000c0044
TX: 0x209 = 00ff945213038000
TX: 0x219 = 000000000000000a
TX: 0x17C = 0040020000000000
CAN decode error: non-hexadecimal number found in fromhex() arg at position 15
TX: 0x2B9 = 100000000035594a
TX: 0x2A9 = 4a16434100000210
TX: 0x2D9 = 8040830000000000
CAN decode error: non-hexadecimal number found in fromhex() arg at position 14
CAN decode error: non-hexadecimal number found in fromhex() arg at position 15
CAN decode error: non-hexadecimal number found in fromhex() arg at position 15
CAN decode error: invalid literal for int() with base 10: 'A'
CAN decode error: non-hexadecimal number found in fromhex() arg at position 15
CAN decode error: non-hexadecimal number found in fromhex() arg at position 15
CAN decode error: non-hexadecimal number found in fromhex() arg at position 2
CAN decode error: non-hexadecimal number found in fromhex() arg at position 15
CAN decode error: non-hexadecimal number found in fromhex() arg at position 15
TX: 0x199 = 2f7d200004ff1057
TX: 0x169 = 034000a000001069
TX: 0x119 = ff1ff41181bb
TX: 0x109 = 00200080000000a7
CAN decode error: non-hexadecimal number found in fromhex() arg at position 15
⚠️  ERROR CODE (0x3FF): 144
RX: 0x300 = 180a8c0f79a00308
CAN decode error: non-hexadecimal number found in fromhex() arg at position 15
CAN decode error: non-hexadecimal number found in fromhex() arg at position 15
CAN decode error: invalid literal for int() with base 16: '3t1'
CAN decode error: non-hexadecimal number found in fromhex() arg at position 15
CAN decode error: non-hexadecimal number found in fromhex() arg at position 15
CAN decode error: invalid literal for int() with base 16: 't3418FD1'
CAN decode error: non-hexadecimal number found in fromhex() arg at position 15
CAN error: Could not read from serial device
TX: 0x199 = 2f7d200004ff201d
TX: 0x169 = 06a000ac000020e8
TX: 0x119 = ff1ff41182bc
TX: 0x109 = 00400080000000c7
TX: 0x159 = fbff4f6bff170000
TX: 0x149 = 0026026aaa041fa5
TX: 0x129 = 000000201046
TX: 0x1A9 = 00000c1054
⚠️  ERROR CODE (0x3FF): 168
TX: 0x199 = 2f7d200004ff30d0
TX: 0x169 = 09e000b800003047
TX: 0x119 = ff1ff41183bd
TX: 0x109 = 00600080000000e7
🎯 RADAR STATUS (0x300): State=7, Scan=168, Power=192
TX: 0x199 = 2f7d200004ff4089
TX: 0x169 = 0c2001c4000040a7
TX: 0x119 = ff1ff41184be
TX: 0x109 = 0080008000000007
TX: 0x159 = fbff4f7bff270000
TX: 0x149 = 0026026aaa042fb5
TX: 0x129 = 000000202056
TX: 0x1A9 = 00000c2064
TX: 0x199 = 2f7d200004ff5044
TX: 0x169 = 0f8001cc00005022
TX: 0x119 = ff1ff41185bf
TX: 0x109 = 00a0008000000027
TX: 0x199 = 2f7d200004ff600e
TX: 0x169 = 11c001d800006080
TX: 0x119 = ff1ff41186c0
TX: 0x109 = 00c0008000000047
TX: 0x159 = fbff4f8bff370000
TX: 0x149 = 0026026aaa043fc5
TX: 0x129 = 000000203066
TX: 0x1A9 = 00000c3074
TX: 0x199 = 2f7d200004ff70c3
TX: 0x169 = 140002e4000070e0
TX: 0x119 = ff1ff41187c1
TX: 0x109 = 00e0008000000067
⚠️  ERROR CODE (0x3FF): 176
TX: 0x199 = 2f7d200004ff80bc
TX: 0x169 = 176002f00000805f
TX: 0x119 = ff1ff41188c2
TX: 0x109 = 0000008000000087
TX: 0x159 = fbff4f9bff470000
TX: 0x149 = 0026026aaa044fd5
TX: 0x129 = 000000204076
TX: 0x1A9 = 00000c4084
TX: 0x199 = 2f7d200004ff9071
TX: 0x169 = 1aa002fc000090be
TX: 0x119 = ff1ff41189c3
TX: 0x109 = 00200080000000a7
🎯 RADAR STATUS (0x300): State=0, Scan=168, Power=192
TX: 0x199 = 2f7d200004ffa03b
TX: 0x169 = 1e0003080100a040
TX: 0x119 = ff1ff4118ac4
TX: 0x109 = 00400080000000c7
TX: 0x159 = fbff4fabff570000
TX: 0x149 = 0026026aaa045fe5
TX: 0x129 = 000000205086
TX: 0x1A9 = 00000c5094
TX: 0x209 = 00ff945213038000
TX: 0x219 = 00000000000010c7
TX: 0x17C = 0040020102000000
CAN error: Could not read from serial device
CAN error: Could not read from serial device
CAN decode error: non-hexadecimal number found in fromhex() arg at position 15
CAN error: Could not read from serial device
TX: 0x199 = 2f7d200004ffb0f6
TX: 0x169 = 204003100100b09a
TX: 0x119 = ff1ff4118bc5
TX: 0x109 = 00600080000000e7
TX: 0x199 = 2f7d200004ffc0af
TX: 0x169 = 2380031c0100c0f9
TX: 0x119 = ff1ff4118cc6
TX: 0x109 = 0080008000000007
TX: 0x159 = fbff4fbbff670000
TX: 0x149 = 0026026aaa046ff5
TX: 0x129 = 000000206096
TX: 0x1A9 = 00000c60a4
TX: 0x199 = 2f7d200004ffd062
TX: 0x169 = 26e003280100d078
TX: 0x119 = ff1ff4118dc7
TX: 0x109 = 00a0008000000027
⚠️  ERROR CODE (0x3FF): 200
TX: 0x199 = 2f7d200004ffe028
TX: 0x169 = 292004300100e0d4
TX: 0x119 = ff1ff4118ec8
TX: 0x109 = 00c0008000000047
TX: 0x159 = fbff4fcbff770000
TX: 0x149 = 0026026aaa047f05
TX: 0x129 = 0000002070a6
TX: 0x1A9 = 00000c70b4
TX: 0x199 = 2f7d200004fff0e5
TX: 0x169 = 2c60043c0100f033
TX: 0x119 = ff1ff4118fc9
TX: 0x109 = 00e0008000000067
TX: 0x199 = 2f7d200004ff009a
TX: 0x169 = 2fc0044881000032
TX: 0x119 = ff1ff41180ba
TX: 0x109 = 0000008000000087
TX: 0x159 = fbff4fdbff870000
TX: 0x149 = 0026026aaa048f15
TX: 0x129 = 0000002080b6
TX: 0x1A9 = 00000c80c4
🎯 RADAR STATUS (0x300): State=0, Scan=168, Power=192
TX: 0x199 = 2f7d200004ff1057
TX: 0x169 = 320005508101108f
TX: 0x119 = ff1ff41181bb
TX: 0x109 = 00200080000000a7
TX: 0x199 = 2f7d200004ff201d
TX: 0x169 = 3540055c01032070
TX: 0x119 = ff1ff41182bc
TX: 0x109 = 00400080000000c7
TX: 0x159 = fbff4febff970000
TX: 0x149 = 0026026aaa049f25
TX: 0x129 = 0000002090c6
TX: 0x1A9 = 00000c90d4
TX: 0x199 = 2f7d200004ff30d0
TX: 0x169 = 38a00568010430f0
TX: 0x119 = ff1ff41183bd
TX: 0x109 = 00600080000000e7
⚠️  ERROR CODE (0x3FF): 208
TX: 0x199 = 2f7d200004ff4089
TX: 0x169 = 3be00574810540d0
TX: 0x119 = ff1ff41184be
TX: 0x109 = 0080008000000007
TX: 0x159 = fbff4ffbffa70000
TX: 0x149 = 0026026aaa04af35
TX: 0x129 = 00000020a0d6
TX: 0x1A9 = 00000ca0e4
TX: 0x209 = 00ff945213038000
TX: 0x219 = 000000000000208d
TX: 0x17C = 0040040204000000
TX: 0x199 = 2f7d200004ff5044
TX: 0x169 = 3e40068081065051
TX: 0x119 = ff1ff41185bf
TX: 0x109 = 00a0008000000027
🎯 RADAR STATUS (0x300): State=3, Scan=168, Power=192
CAN error: Could not read from serial device
TX: 0x199 = 2f7d200004ff600e
TX: 0x169 = 40800688810760ac
TX: 0x119 = ff1ff41186c0
TX: 0x109 = 00c0008000000047
TX: 0x159 = fbff4f0bffb70000
TX: 0x149 = 0026026aaa04bf45
TX: 0x129 = 00000020b0e6
TX: 0x1A9 = 00000cb0f4
TX: 0x199 = 2f7d200004ff70c3
TX: 0x169 = 43c006940109708d
TX: 0x119 = ff1ff41187c1
TX: 0x109 = 00e0008000000067
TX: 0x199 = 2f7d200004ff80bc
TX: 0x169 = 462007a0010a800e
TX: 0x119 = ff1ff41188c2
TX: 0x109 = 0000008000000087
TX: 0x159 = fbff4f1bffc70000
TX: 0x149 = 0026026aaa04cf55
TX: 0x129 = 00000020c0f6
TX: 0x1A9 = 00000cc004
⚠️  ERROR CODE (0x3FF): 232
TX: 0x199 = 2f7d200004ff9071
TX: 0x169 = 496007a8010b906a
TX: 0x119 = ff1ff41189c3
TX: 0x109 = 00200080000000a7
TX: 0x2B9 = 1153423745343347
TX: 0x199 = 2f7d200004ffa03b
TX: 0x169 = 4ca007b4810ca04a
TX: 0x119 = ff1ff4118ac4
TX: 0x109 = 00400080000000c7
TX: 0x159 = fbff4f2bffd70000
TX: 0x149 = 0026026aaa04df65
TX: 0x129 = 00000020d006
TX: 0x1A9 = 00000cd014
TX: 0x199 = 2f7d200004ffb0f6
TX: 0x169 = 4fe007c0810db0aa
TX: 0x119 = ff1ff4118bc5
TX: 0x109 = 00600080000000e7
TX: 0x199 = 2f7d200004ffc0af
TX: 0x169 = 514008c8810ec026
TX: 0x119 = ff1ff4118cc6
TX: 0x109 = 0080008000000007
TX: 0x159 = fbff4f3bffe70000
TX: 0x149 = 0026026aaa04ef75
TX: 0x129 = 00000020e016
TX: 0x1A9 = 00000ce024
TX: 0x199 = 2f7d200004ffd062
TX: 0x169 = 548008d40110d007
TX: 0x119 = ff1ff4118dc7
TX: 0x109 = 00a0008000000027
🎯 RADAR STATUS (0x300): State=4, Scan=48, Power=0
TX: 0x199 = 2f7d200004ffe028
TX: 0x169 = 57c008e00111e067
TX: 0x119 = ff1ff4118ec8
TX: 0x109 = 00c0008000000047
TX: 0x159 = fbff4f4bfff70000
TX: 0x149 = 0026026aaa04ff85
TX: 0x129 = 00000020f026
TX: 0x1A9 = 00000cf034
TX: 0x209 = 00ff945213038000
TX: 0x219 = 0000000000003040
TX: 0x17C = 0040040306000000
CAN decode error: non-hexadecimal number found in fromhex() arg at position 15
CAN error: Could not read from serial device
CAN decode error: non-hexadecimal number found in fromhex() arg at position 15
TX: 0x199 = 2f7d200004fff0e5
TX: 0x169 = 5a2009ec8112f068
TX: 0x119 = ff1ff4118fc9
TX: 0x109 = 00e0008000000067
CAN decode error: non-hexadecimal number found in fromhex() arg at position 15
CAN error: Could not read from serial device
TX: 0x199 = 2f7d200004ff009a
TX: 0x169 = 5d6009f4811300c4
TX: 0x119 = ff1ff41180ba
TX: 0x109 = 0000008000000087
TX: 0x159 = fbff4f5bff070000
TX: 0x149 = 0026026aaa040f95
TX: 0x129 = 000000200036
TX: 0x1A9 = 00000c0044
TX: 0x199 = 2f7d200004ff1057
TX: 0x169 = 5fa0090082141024
TX: 0x119 = ff1ff41181bb
TX: 0x109 = 00200080000000a7
⚠️  ERROR CODE (0x3FF): 240
TX: 0x199 = 2f7d200004ff201d
TX: 0x169 = 62e0090882152080
TX: 0x119 = ff1ff41182bc
TX: 0x109 = 00400080000000c7
TX: 0x159 = fbff4f6bff170000
TX: 0x149 = 0026026aaa041fa5
TX: 0x129 = 000000201046
TX: 0x1A9 = 00000c1054
TX: 0x199 = 2f7d200004ff30d0
TX: 0x169 = 65200a1402173062
TX: 0x119 = ff1ff41183bd
TX: 0x109 = 00600080000000e7
🎯 RADAR STATUS (0x300): State=1, Scan=52, Power=128
TX: 0x199 = 2f7d200004ff4089
TX: 0x169 = 68800a20021840e2
TX: 0x119 = ff1ff41184be
TX: 0x109 = 0080008000000007
TX: 0x159 = fbff4f7bff270000
TX: 0x149 = 0026026aaa042fb5
TX: 0x129 = 000000202056
TX: 0x1A9 = 00000c2064
TX: 0x199 = 2f7d200004ff5044
TX: 0x169 = 6bc00a280219503e
TX: 0x119 = ff1ff41185bf
TX: 0x109 = 00a0008000000027
TX: 0x199 = 2f7d200004ff600e
TX: 0x169 = 6e000b34821a601f
TX: 0x119 = ff1ff41186c0
TX: 0x109 = 00c0008000000047
TX: 0x159 = fbff4f8bff370000
TX: 0x149 = 0026026aaa043fc5
TX: 0x129 = 000000203066
TX: 0x1A9 = 00000c3074
⚠️  ERROR CODE (0x3FF): 8
TX: 0x199 = 2f7d200004ff70c3
TX: 0x169 = 70600b40821b709e
TX: 0x119 = ff1ff41187c1
TX: 0x109 = 00e0008000000067
TX: 0x199 = 2f7d200004ff80bc
TX: 0x169 = 73a00b48821c80fa
TX: 0x119 = ff1ff41188c2
TX: 0x109 = 0000008000000087
TX: 0x159 = fbff4f9bff470000
TX: 0x149 = 0026026aaa044fd5
TX: 0x129 = 000000204076
TX: 0x1A9 = 00000c4084
TX: 0x209 = 00ff945213038000
TX: 0x219 = 0000000000004019
TX: 0x17C = 0040040408000000
🎯 RADAR STATUS (0x300): State=7, Scan=56, Power=64
TX: 0x199 = 2f7d200004ff9071
TX: 0x169 = 76e00b54021e90db
TX: 0x119 = ff1ff41189c3
TX: 0x109 = 00200080000000a7
CAN decode error: non-hexadecimal number found in fromhex() arg at position 15
CAN error: Could not read from serial device
TX: 0x199 = 2f7d200004ffa03b
TX: 0x169 = 79400c60021fa05c
TX: 0x119 = ff1ff4118ac4
TX: 0x109 = 00400080000000c7
TX: 0x159 = fbff4fabff570000
TX: 0x149 = 0026026aaa045fe5
TX: 0x129 = 000000205086
TX: 0x1A9 = 00000c5094
TX: 0x199 = 2f7d200004ffb0f6
TX: 0x169 = 7c800c680220b0b8
TX: 0x119 = ff1ff4118bc5
TX: 0x109 = 00600080000000e7
⚠️  ERROR CODE (0x3FF): 16
TX: 0x199 = 2f7d200004ffc0af
TX: 0x169 = 7fc00c748221c098
TX: 0x119 = ff1ff4118cc6
TX: 0x109 = 0080008000000007
TX: 0x159 = fbff4fbbff670000
TX: 0x149 = 0026026aaa046ff5
TX: 0x129 = 000000206096
TX: 0x1A9 = 00000c60a4
TX: 0x199 = 2f7d200004ffd062
TX: 0x169 = 82200d800223d09a
TX: 0x119 = ff1ff4118dc7
TX: 0x109 = 00a0008000000027
TX: 0x199 = 2f7d200004ffe028
TX: 0x169 = 85600d8c0224e0fa
TX: 0x119 = ff1ff4118ec8
TX: 0x109 = 00c0008000000047
TX: 0x159 = fbff4fcbff770000
TX: 0x149 = 0026026aaa047f05
TX: 0x129 = 0000002070a6
TX: 0x1A9 = 00000c70b4
🎯 RADAR STATUS (0x300): State=13, Scan=60, Power=0
TX: 0x199 = 2f7d200004fff0e5
TX: 0x169 = 88a00d980225f05a
TX: 0x119 = ff1ff4118fc9
TX: 0x109 = 00e0008000000067
TX: 0x199 = 2f7d200004ff009a
TX: 0x169 = 8b000ea082260057
TX: 0x119 = ff1ff41180ba
TX: 0x109 = 0000008000000087
TX: 0x159 = fbff4fdbff870000
TX: 0x149 = 0026026aaa048f15
TX: 0x129 = 0000002080b6
TX: 0x1A9 = 00000c80c4
TX: 0x199 = 2f7d200004ff1057
TX: 0x169 = 8e400eac822710b7
TX: 0x119 = ff1ff41181bb
TX: 0x109 = 00200080000000a7
⚠️  ERROR CODE (0x3FF): 40
TX: 0x199 = 2f7d200004ff201d
TX: 0x169 = 91a00eb8022920b8
TX: 0x119 = ff1ff41182bc
TX: 0x109 = 00400080000000c7
TX: 0x159 = fbff4febff970000
TX: 0x149 = 0026026aaa049f25
TX: 0x129 = 0000002090c6
TX: 0x1A9 = 00000c90d4
TX: 0x209 = 00ff945213038000
TX: 0x219 = 00000000000050d4
TX: 0x17C = 004004050a000000
TX: 0x2B9 = 1246313133313035
VIN transmission cycle: 1/7
TX: 0x199 = 2f7d200004ff30d0
TX: 0x169 = 94e00ec4022a3018
TX: 0x119 = ff1ff41183bd
TX: 0x109 = 00600080000000e7
CAN error: Could not read from serial device
🎯 RADAR STATUS (0x300): State=15, Scan=64, Power=64
TX: 0x199 = 2f7d200004ff4089
TX: 0x169 = 96200fcc022b4074
TX: 0x119 = ff1ff41184be
TX: 0x109 = 0080008000000007
TX: 0x159 = fbff4ffbffa70000
TX: 0x149 = 0026026aaa04af35
TX: 0x129 = 00000020a0d6
TX: 0x1A9 = 00000ca0e4
TX: 0x199 = 2f7d200004ff5044
TX: 0x169 = 99800fd8822c5074
TX: 0x119 = ff1ff41185bf
TX: 0x109 = 00a0008000000027
TX: 0x199 = 2f7d200004ff600e
TX: 0x169 = 9cc00fe4822d60d4
TX: 0x119 = ff1ff41186c0
TX: 0x109 = 00c0008000000047
TX: 0x159 = fbff4f0bffb70000
TX: 0x149 = 0026026aaa04bf45
TX: 0x129 = 00000020b0e6
TX: 0x1A9 = 00000cb0f4
⚠️  ERROR CODE (0x3FF): 48
TX: 0x199 = 2f7d200004ff70c3
TX: 0x169 = 9e0010ec822e7030
TX: 0x119 = ff1ff41187c1
TX: 0x109 = 00e0008000000067
TX: 0x199 = 2f7d200004ff80bc
TX: 0x169 = a14010f8822f8090
TX: 0x119 = ff1ff41188c2
TX: 0x109 = 0000008000000087
TX: 0x159 = fbff4f1bffc70000
TX: 0x149 = 0026026aaa04cf55
TX: 0x129 = 00000020c0f6
TX: 0x1A9 = 00000cc004
TX: 0x199 = 2f7d200004ff9071
TX: 0x169 = a48010000331906e
TX: 0x119 = ff1ff41189c3
TX: 0x109 = 00200080000000a7
🎯 RADAR STATUS (0x300): State=15, Scan=72, Power=192
TX: 0x199 = 2f7d200004ffa03b
TX: 0x169 = a7e0100c0332a0ee
TX: 0x119 = ff1ff4118ac4
TX: 0x109 = 00400080000000c7
TX: 0x159 = fbff4f2bffd70000
TX: 0x149 = 0026026aaa04df65
TX: 0x129 = 00000020d006
TX: 0x1A9 = 00000cd014
TX: 0x199 = 2f7d200004ffb0f6
TX: 0x169 = a92011180333b04e
TX: 0x119 = ff1ff4118bc5
TX: 0x109 = 00600080000000e7
TX: 0x199 = 2f7d200004ffc0af
TX: 0x169 = ac6011208334c02a
TX: 0x119 = ff1ff4118cc6
TX: 0x109 = 0080008000000007
TX: 0x159 = fbff4f3bffe70000
TX: 0x149 = 0026026aaa04ef75
TX: 0x129 = 00000020e016
TX: 0x1A9 = 00000ce024
TX: 0x209 = 00ff945213038000
TX: 0x219 = 000000000000609e
TX: 0x17C = 004004060c000000
⚠️  ERROR CODE (0x3FF): 72
TX: 0x199 = 2f7d200004ffd062
TX: 0x169 = afa0112c8335d08a
TX: 0x119 = ff1ff4118dc7
TX: 0x109 = 00a0008000000027
TX: 0x199 = 2f7d200004ffe028
TX: 0x169 = b20012388336e00b
TX: 0x119 = ff1ff4118ec8
TX: 0x109 = 00c0008000000047
TX: 0x159 = fbff4f4bfff70000
TX: 0x149 = 0026026aaa04ff85
TX: 0x129 = 00000020f026
TX: 0x1A9 = 00000cf034
CAN error: Could not read from serial device
CAN decode error: non-hexadecimal number found in fromhex() arg at position 15
CAN error: Could not read from serial device
CAN error: Could not read from serial device
CAN error: Could not read from serial device
CAN decode error: non-hexadecimal number found in fromhex() arg at position 15
CAN error: Could not read from serial device
TX: 0x199 = 2f7d200004fff0e5
TX: 0x169 = b54012440338f0ec
TX: 0x119 = ff1ff4118fc9
TX: 0x109 = 00e0008000000067
TX: 0x199 = 2f7d200004ff009a
TX: 0x169 = b8a0124c03390068
TX: 0x119 = ff1ff41180ba
TX: 0x109 = 0000008000000087
TX: 0x159 = fbff4f5bff070000
TX: 0x149 = 0026026aaa040f95
TX: 0x129 = 000000200036
TX: 0x1A9 = 00000c0044
TX: 0x199 = 2f7d200004ff1057
TX: 0x169 = bbe01258833a1048
TX: 0x119 = ff1ff41181bb
TX: 0x109 = 00200080000000a7
⚠️  ERROR CODE (0x3FF): 80
TX: 0x199 = 2f7d200004ff201d
TX: 0x169 = be201364833b20a9
TX: 0x119 = ff1ff41182bc
TX: 0x109 = 00400080000000c7
TX: 0x159 = fbff4f6bff170000
TX: 0x149 = 0026026aaa041fa5
TX: 0x129 = 000000201046
TX: 0x1A9 = 00000c1054
TX: 0x199 = 2f7d200004ff30d0
TX: 0x169 = c180136c033d30a6
TX: 0x119 = ff1ff41183bd
TX: 0x109 = 00600080000000e7
🎯 RADAR STATUS (0x300): State=12, Scan=92, Power=128
TX: 0x199 = 2f7d200004ff4089
TX: 0x169 = c4c01378033e4006
TX: 0x119 = ff1ff41184be
TX: 0x109 = 0080008000000007
TX: 0x159 = fbff4f7bff270000
TX: 0x149 = 0026026aaa042fb5
TX: 0x129 = 000000202056
TX: 0x1A9 = 00000c2064
TX: 0x199 = 2f7d200004ff5044
TX: 0x169 = c7201484833f5007
TX: 0x119 = ff1ff41185bf
TX: 0x109 = 00a0008000000027
TX: 0x199 = 2f7d200004ff600e
TX: 0x169 = c960149083406066
TX: 0x119 = ff1ff41186c0
TX: 0x109 = 00c0008000000047
TX: 0x159 = fbff4f8bff370000
TX: 0x149 = 0026026aaa043fc5
TX: 0x129 = 000000203066
TX: 0x1A9 = 00000c3074
TX: 0x209 = 00ff945213038000
TX: 0x219 = 0000000000007053
TX: 0x17C = 004004070e000000
⚠️  ERROR CODE (0x3FF): 104
TX: 0x199 = 2f7d200004ff70c3
TX: 0x169 = cca01498834170c2
TX: 0x119 = ff1ff41187c1
TX: 0x109 = 00e0008000000067
TX: 0x199 = 2f7d200004ff80bc
TX: 0x169 = d00015a4034380c5
TX: 0x119 = ff1ff41188c2
TX: 0x109 = 0000008000000087
TX: 0x159 = fbff4f9bff470000
TX: 0x149 = 0026026aaa044fd5
TX: 0x129 = 000000204076
TX: 0x1A9 = 00000c4084
TX: 0x199 = 2f7d200004ff9071
TX: 0x169 = d34015b003449025
TX: 0x119 = ff1ff41189c3
TX: 0x109 = 00200080000000a7
🎯 RADAR STATUS (0x300): State=3, Scan=112, Power=128
CAN error: Could not read from serial device
TX: 0x199 = 2f7d200004ffa03b
TX: 0x169 = d6a015bc8345a025
TX: 0x119 = ff1ff4118ac4
TX: 0x109 = 00400080000000c7
TX: 0x159 = fbff4fabff570000
TX: 0x149 = 0026026aaa045fe5
TX: 0x129 = 000000205086
TX: 0x1A9 = 00000c5094
TX: 0x199 = 2f7d200004ffb0f6
TX: 0x169 = d8e015c88346b084
TX: 0x119 = ff1ff4118bc5
TX: 0x109 = 00600080000000e7
TX: 0x2B9 = 100000000035594a
TX: 0x199 = 2f7d200004ffc0af
TX: 0x169 = db2016d40348c066
TX: 0x119 = ff1ff4118cc6
TX: 0x109 = 0080008000000007
TX: 0x159 = fbff4fbbff670000
TX: 0x149 = 0026026aaa046ff5
TX: 0x129 = 000000206096
TX: 0x1A9 = 00000c60a4
⚠️  ERROR CODE (0x3FF): 112
TX: 0x199 = 2f7d200004ffd062
TX: 0x169 = de8016dc0349d0e2
TX: 0x119 = ff1ff4118dc7
TX: 0x109 = 00a0008000000027
TX: 0x199 = 2f7d200004ffe028
TX: 0x169 = e1c016e8834ae0c2
TX: 0x119 = ff1ff4118ec8
TX: 0x109 = 00c0008000000047
TX: 0x159 = fbff4fcbff770000
TX: 0x149 = 0026026aaa047f05
TX: 0x129 = 0000002070a6
TX: 0x1A9 = 00000c70b4
🎯 RADAR STATUS (0x300): State=1, Scan=128, Power=128
TX: 0x199 = 2f7d200004fff0e5
TX: 0x169 = e42017f4834bf043
TX: 0x119 = ff1ff4118fc9
TX: 0x109 = 00e0008000000067
TX: 0x199 = 2f7d200004ff009a
TX: 0x169 = e7601700044d0025
TX: 0x119 = ff1ff41180ba
TX: 0x109 = 0000008000000087
TX: 0x159 = fbff4fdbff870000
TX: 0x149 = 0026026aaa048f15
TX: 0x129 = 0000002080b6
TX: 0x1A9 = 00000c80c4
TX: 0x209 = 00ff945213038000
TX: 0x219 = 000000000000802c
TX: 0x17C = 0040040810000000
TX: 0x199 = 2f7d200004ff1057
TX: 0x169 = eaa01708044e1081
TX: 0x119 = ff1ff41181bb
TX: 0x109 = 00200080000000a7
TX: 0x199 = 2f7d200004ff201d
TX: 0x169 = ed001814044f2002
TX: 0x119 = ff1ff41182bc
TX: 0x109 = 00400080000000c7
TX: 0x159 = fbff4febff970000
TX: 0x149 = 0026026aaa049f25
TX: 0x129 = 0000002090c6
TX: 0x1A9 = 00000c90d4
CAN error: Could not read from serial device
CAN decode error: non-hexadecimal number found in fromhex() arg at position 15
TX: 0x199 = 2f7d200004ff30d0
TX: 0x169 = f0401820845030e2
TX: 0x119 = ff1ff41183bd
TX: 0x109 = 00600080000000e7
TX: 0x199 = 2f7d200004ff4089
TX: 0x169 = f28018288451403d
TX: 0x119 = ff1ff41184be
TX: 0x109 = 0080008000000007
TX: 0x159 = fbff4ffbffa70000
TX: 0x149 = 0026026aaa04af35
TX: 0x129 = 00000020a0d6
TX: 0x1A9 = 00000ca0e4
CAN decode error: non-hexadecimal number found in fromhex() arg at position 11
CAN error: Could not read from serial device
TX: 0x199 = 2f7d200004ff5044
TX: 0x169 = f5e01834845250bd
TX: 0x119 = ff1ff41185bf
TX: 0x109 = 00a0008000000027
TX: 0x199 = 2f7d200004ff600e
TX: 0x169 = f82019400454609f
TX: 0x119 = ff1ff41186c0
TX: 0x109 = 00c0008000000047
TX: 0x159 = fbff4f0bffb70000
TX: 0x149 = 0026026aaa04bf45
TX: 0x129 = 00000020b0e6
TX: 0x1A9 = 00000cb0f4
TX: 0x199 = 2f7d200004ff70c3
TX: 0x169 = fb80194c8455709f
TX: 0x119 = ff1ff41187c1
TX: 0x109 = 00e0008000000067
⚠️  ERROR CODE (0x3FF): 144
TX: 0x199 = 2f7d200004ff80bc
TX: 0x169 = fec01954845680fb
TX: 0x119 = ff1ff41188c2
TX: 0x109 = 0000008000000087
TX: 0x159 = fbff4f1bffc70000
TX: 0x149 = 0026026aaa04cf55
TX: 0x129 = 00000020c0f6
TX: 0x1A9 = 00000cc004
TX: 0x199 = 2f7d200004ff9071
TX: 0x169 = 01011a608457905d
TX: 0x119 = ff1ff41189c3
TX: 0x109 = 00200080000000a7
🎯 RADAR STATUS (0x300): State=13, Scan=168, Power=0
TX: 0x199 = 2f7d200004ffa03b
TX: 0x169 = 04611a6c0459a05e
TX: 0x119 = ff1ff4118ac4
TX: 0x109 = 00400080000000c7
TX: 0x159 = fbff4f2bffd70000
TX: 0x149 = 0026026aaa04df65
TX: 0x129 = 00000020d006
TX: 0x1A9 = 00000cd014
TX: 0x209 = 00ff945213038000
TX: 0x219 = 00000000000090e1
TX: 0x17C = 0040040912000000
TX: 0x199 = 2f7d200004ffb0f6
TX: 0x169 = 07a11a78045ab0be
TX: 0x119 = ff1ff4118bc5
TX: 0x109 = 00600080000000e7
TX: 0x199 = 2f7d200004ffc0af
TX: 0x169 = 0ae11a80845bc09a
TX: 0x119 = ff1ff4118cc6
TX: 0x109 = 0080008000000007
TX: 0x159 = fbff4f3bffe70000
TX: 0x149 = 0026026aaa04ef75
TX: 0x129 = 00000020e016
TX: 0x1A9 = 00000ce024
⚠️  ERROR CODE (0x3FF): 168
TX: 0x199 = 2f7d200004ffd062
TX: 0x169 = 0d411b8c845cd01b
TX: 0x119 = ff1ff4118dc7
TX: 0x109 = 00a0008000000027
TX: 0x199 = 2f7d200004ffe028
TX: 0x169 = 10811b98045ee0fc
TX: 0x119 = ff1ff4118ec8
TX: 0x109 = 00c0008000000047
TX: 0x159 = fbff4f4bfff70000
TX: 0x149 = 0026026aaa04ff85
TX: 0x129 = 00000020f026
TX: 0x1A9 = 00000cf034
CAN decode error: non-hexadecimal number found in fromhex() arg at position 15
CAN error: Could not read from serial device
TX: 0x199 = 2f7d200004fff0e5
TX: 0x169 = 13e11ba4045ff07c
TX: 0x119 = ff1ff4118fc9
TX: 0x109 = 00e0008000000067
TX: 0x199 = 2f7d200004ff009a
TX: 0x169 = 16211cac046000d9
TX: 0x119 = ff1ff41180ba
TX: 0x109 = 0000008000000087
TX: 0x159 = fbff4f5bff070000
TX: 0x149 = 0026026aaa040f95
TX: 0x129 = 000000200036
TX: 0x1A9 = 00000c0044
TX: 0x199 = 2f7d200004ff1057
TX: 0x169 = 19611cb8846110b9
TX: 0x119 = ff1ff41181bb
TX: 0x109 = 00200080000000a7
TX: 0x199 = 2f7d200004ff201d
TX: 0x169 = 1ba11cc484622018
TX: 0x119 = ff1ff41182bc
TX: 0x109 = 00400080000000c7
TX: 0x159 = fbff4f6bff170000
TX: 0x149 = 0026026aaa041fa5
TX: 0x129 = 000000201046
TX: 0x1A9 = 00000c1054
⚠️  ERROR CODE (0x3FF): 176
TX: 0x199 = 2f7d200004ff30d0
TX: 0x169 = 1e011dcc84633095
TX: 0x119 = ff1ff41183bd
TX: 0x109 = 00600080000000e7
Status: Not Present, VIN: 1/7, Time: 1.1s
TX: 0x199 = 2f7d200004ff4089
TX: 0x169 = 21411dd804654076
TX: 0x119 = ff1ff41184be
TX: 0x109 = 0080008000000007
TX: 0x159 = fbff4f7bff270000
TX: 0x149 = 0026026aaa042fb5
TX: 0x129 = 000000202056
TX: 0x1A9 = 00000c2064
TX: 0x209 = 00ff945213038000
TX: 0x219 = 000000000000a0ab
TX: 0x17C = 0040040a14000000
TX: 0x2B9 = 1153423745343347
TX: 0x2A9 = 4a16434100000210
TX: 0x2D9 = 8040830000000000
🎯 RADAR STATUS (0x300): State=15, Scan=184, Power=0
TX: 0x199 = 2f7d200004ff5044
TX: 0x169 = 24a11de4046650f6
TX: 0x119 = ff1ff41185bf
TX: 0x109 = 00a0008000000027
TX: 0x199 = 2f7d200004ff600e
TX: 0x169 = 27e11dec846760d2
TX: 0x119 = ff1ff41186c0
TX: 0x109 = 00c0008000000047
TX: 0x159 = fbff4f8bff370000
TX: 0x149 = 0026026aaa043fc5
TX: 0x129 = 000000203066
TX: 0x1A9 = 00000c3074
TX: 0x199 = 2f7d200004ff70c3
TX: 0x169 = 2a211ef884687033
TX: 0x119 = ff1ff41187c1
TX: 0x109 = 00e0008000000067
⚠️  ERROR CODE (0x3FF): 200
TX: 0x199 = 2f7d200004ff80bc
TX: 0x169 = 2c811e04056a8034
TX: 0x119 = ff1ff41188c2
TX: 0x109 = 0000008000000087
TX: 0x159 = fbff4f9bff470000
TX: 0x149 = 0026026aaa044fd5
TX: 0x129 = 000000204076
TX: 0x1A9 = 00000c4084
TX: 0x199 = 2f7d200004ff9071
TX: 0x169 = 30c11e10056b9095
TX: 0x119 = ff1ff41189c3
TX: 0x109 = 00200080000000a7
🎯 RADAR STATUS (0x300): State=7, Scan=192, Power=192
CAN error: Could not read from serial device
TX: 0x199 = 2f7d200004ffa03b
TX: 0x169 = 32011f18056ca0f1
TX: 0x119 = ff1ff4118ac4
TX: 0x109 = 00400080000000c7
TX: 0x159 = fbff4fabff570000
TX: 0x149 = 0026026aaa045fe5
TX: 0x129 = 000000205086
TX: 0x1A9 = 00000c5094
TX: 0x199 = 2f7d200004ffb0f6
TX: 0x169 = 35611f24856db0f1
TX: 0x119 = ff1ff4118bc5
TX: 0x109 = 00600080000000e7
TX: 0x199 = 2f7d200004ffc0af
TX: 0x169 = 38a11f30856ec051
TX: 0x119 = ff1ff4118cc6
TX: 0x109 = 0080008000000007
TX: 0x159 = fbff4fbbff670000
TX: 0x149 = 0026026aaa046ff5
TX: 0x129 = 000000206096
TX: 0x1A9 = 00000c60a4
⚠️  ERROR CODE (0x3FF): 208
TX: 0x199 = 2f7d200004ffd062
TX: 0x169 = 3be11f380570d02e
TX: 0x119 = ff1ff4118dc7
TX: 0x109 = 00a0008000000027
TX: 0x199 = 2f7d200004ffe028
TX: 0x169 = 3e4120440571e0af
TX: 0x119 = ff1ff4118ec8
TX: 0x109 = 00c0008000000047
TX: 0x159 = fbff4fcbff770000
TX: 0x149 = 0026026aaa047f05
TX: 0x129 = 0000002070a6
TX: 0x1A9 = 00000c70b4
TX: 0x209 = 00ff945213038000
TX: 0x219 = 000000000000b066
TX: 0x17C = 0040040b16000000
TX: 0x199 = 2f7d200004fff0e5
TX: 0x169 = 418120508572f08f
TX: 0x119 = ff1ff4118fc9
TX: 0x109 = 00e0008000000067
🎯 RADAR STATUS (0x300): State=6, Scan=204, Power=0
TX: 0x199 = 2f7d200004ff009a
TX: 0x169 = 43c12058857300ea
TX: 0x119 = ff1ff41180ba
TX: 0x109 = 0000008000000087
TX: 0x159 = fbff4fdbff870000
TX: 0x149 = 0026026aaa048f15
TX: 0x129 = 0000002080b6
TX: 0x1A9 = 00000c80c4
TX: 0x199 = 2f7d200004ff1057
TX: 0x169 = 462121648574106b
TX: 0x119 = ff1ff41181bb
TX: 0x109 = 00200080000000a7
TX: 0x199 = 2f7d200004ff201d
TX: 0x169 = 496121700576204c
TX: 0x119 = ff1ff41182bc
TX: 0x109 = 00400080000000c7
TX: 0x159 = fbff4febff970000
TX: 0x149 = 0026026aaa049f25
TX: 0x129 = 0000002090c6
TX: 0x1A9 = 00000c90d4
TX: 0x199 = 2f7d200004ff30d0
TX: 0x169 = 4ca12178057730a8
TX: 0x119 = ff1ff41183bd
TX: 0x109 = 00600080000000e7
CAN decode error: non-hexadecimal number found in fromhex() arg at position 5
TX: 0x199 = 2f7d200004ff4089
TX: 0x169 = 4f012284857840a9
TX: 0x119 = ff1ff41184be
TX: 0x109 = 0080008000000007
TX: 0x159 = fbff4ffbffa70000
TX: 0x149 = 0026026aaa04af35
TX: 0x129 = 00000020a0d6
TX: 0x1A9 = 00000ca0e4
CAN error: Could not read from serial device
CAN error: Could not read from serial device
CAN error: Could not read from serial device
CAN decode error: non-hexadecimal number found in fromhex() arg at position 15
CAN error: Could not read from serial device
CAN decode error: non-hexadecimal number found in fromhex() arg at position 15
CAN error: Could not read from serial device
TX: 0x199 = 2f7d200004ff5044
TX: 0x169 = 5141229085795008
TX: 0x119 = ff1ff41185bf
TX: 0x109 = 00a0008000000027
TX: 0x199 = 2f7d200004ff600e
TX: 0x169 = 5581229c857a6069
TX: 0x119 = ff1ff41186c0
TX: 0x109 = 00c0008000000047
TX: 0x159 = fbff4f0bffb70000
TX: 0x149 = 0026026aaa04bf45
TX: 0x129 = 00000020b0e6
TX: 0x1A9 = 00000cb0f4
TX: 0x199 = 2f7d200004ff70c3
TX: 0x169 = 57e122a4057c7065
TX: 0x119 = ff1ff41187c1
TX: 0x109 = 00e0008000000067
⚠️  ERROR CODE (0x3FF): 240
TX: 0x199 = 2f7d200004ff80bc
TX: 0x169 = 5a2123b0057d80c6
TX: 0x119 = ff1ff41188c2
TX: 0x109 = 0000008000000087
TX: 0x159 = fbff4f1bffc70000
TX: 0x149 = 0026026aaa04cf55
TX: 0x129 = 00000020c0f6
TX: 0x1A9 = 00000cc004
TX: 0x209 = 00ff945213038000
TX: 0x219 = 000000000000c03f
TX: 0x17C = 0040040c18000000
TX: 0x199 = 2f7d200004ff9071
TX: 0x169 = 5d8123bc857e90c6
TX: 0x119 = ff1ff41189c3
TX: 0x109 = 00200080000000a7
TX: 0x199 = 2f7d200004ffa03b
TX: 0x169 = 60c123c4857fa022
TX: 0x119 = ff1ff4118ac4
TX: 0x109 = 00400080000000c7
TX: 0x159 = fbff4f2bffd70000
TX: 0x149 = 0026026aaa04df65
TX: 0x129 = 00000020d006
TX: 0x1A9 = 00000cd014
🎯 RADAR STATUS (0x300): State=6, Scan=224, Power=128
TX: 0x199 = 2f7d200004ffb0f6
TX: 0x169 = 632124d00581b024
TX: 0x119 = ff1ff4118bc5
TX: 0x109 = 00600080000000e7
TX: 0x199 = 2f7d200004ffc0af
TX: 0x169 = 666124dc0582c084
TX: 0x119 = ff1ff4118cc6
TX: 0x109 = 0080008000000007
TX: 0x159 = fbff4f3bffe70000
TX: 0x149 = 0026026aaa04ef75
TX: 0x129 = 00000020e016
TX: 0x1A9 = 00000ce024
TX: 0x199 = 2f7d200004ffd062
TX: 0x169 = 68a124e40583d0df
TX: 0x119 = ff1ff4118dc7
TX: 0x109 = 00a0008000000027
TX: 0x2B9 = 1246313133313035
VIN transmission cycle: 2/7
⚠️  ERROR CODE (0x3FF): 8
TX: 0x199 = 2f7d200004ffe028
TX: 0x169 = 6be124f08584e0bf
TX: 0x119 = ff1ff4118ec8
TX: 0x109 = 00c0008000000047
TX: 0x159 = fbff4f4bfff70000
TX: 0x149 = 0026026aaa04ff85
TX: 0x129 = 00000020f026
TX: 0x1A9 = 00000cf034
TX: 0x199 = 2f7d200004fff0e5
RX: 0x300 = 33ec406710031000
TX: 0x169 = 6e4125fc8585f040
TX: 0x119 = ff1ff4118fc9
TX: 0x109 = 00e0008000000067
CAN error: Could not read from serial device
CAN decode error: non-hexadecimal number found in fromhex() arg at position 7
CAN error: Could not read from serial device
CAN error: Could not read from serial device
CAN error: Could not read from serial device
TX: 0x199 = 2f7d200004ff009a
TX: 0x169 = 718125040687001e
TX: 0x119 = ff1ff41180ba
TX: 0x109 = 0000008000000087
TX: 0x159 = fbff4f5bff070000
TX: 0x149 = 0026026aaa040f95
TX: 0x129 = 000000200036
TX: 0x1A9 = 00000c0044
TX: 0x199 = 2f7d200004ff1057
TX: 0x169 = 74c125100688107e
TX: 0x119 = ff1ff41181bb
TX: 0x109 = 00200080000000a7
TX: 0x199 = 2f7d200004ff201d
TX: 0x169 = 7721261c068920ff
TX: 0x119 = ff1ff41182bc
TX: 0x109 = 00400080000000c7
TX: 0x159 = fbff4f6bff170000
TX: 0x149 = 0026026aaa041fa5
TX: 0x129 = 000000201046
TX: 0x1A9 = 00000c1054
TX: 0x209 = 00ff945213038000
TX: 0x219 = 000000000000d0f2
TX: 0x17C = 0040040d1a000000
⚠️  ERROR CODE (0x3FF): 16
TX: 0x199 = 2f7d200004ff30d0
TX: 0x169 = 79612624868a30da
TX: 0x119 = ff1ff41183bd
TX: 0x109 = 00600080000000e7
TX: 0x199 = 2f7d200004ff4089
TX: 0x169 = 7ca12630868b403a
TX: 0x119 = ff1ff41184be
TX: 0x109 = 0080008000000007
TX: 0x159 = fbff4f7bff270000
TX: 0x149 = 0026026aaa042fb5
TX: 0x129 = 000000202056
TX: 0x1A9 = 00000c2064
TX: 0x199 = 2f7d200004ff5044
TX: 0x169 = 7f01273c868c50bb
TX: 0x119 = ff1ff41185bf
TX: 0x109 = 00a0008000000027
🎯 RADAR STATUS (0x300): State=15, Scan=248, Power=64
TX: 0x199 = 2f7d200004ff600e
TX: 0x169 = 82412744068e6098
TX: 0x119 = ff1ff41186c0
TX: 0x109 = 00c0008000000047
TX: 0x159 = fbff4f8bff370000
TX: 0x149 = 0026026aaa043fc5
TX: 0x129 = 000000203066
TX: 0x1A9 = 00000c3074
TX: 0x199 = 2f7d200004ff70c3
TX: 0x169 = 85a12750868f7098
TX: 0x119 = ff1ff41187c1
TX: 0x109 = 00e0008000000067
TX: 0x199 = 2f7d200004ff80bc
TX: 0x169 = 88e1275c869080f8
TX: 0x119 = ff1ff41188c2
TX: 0x109 = 0000008000000087
⚠️  ERROR CODE (0x3FF): 40
TX: 0x159 = fbff4f9bff470000
TX: 0x149 = 0026026aaa044fd5
TX: 0x129 = 000000204076
TX: 0x1A9 = 00000c4084
TX: 0x199 = 2f7d200004ff9071
TX: 0x169 = 8b412868069290fa
TX: 0x119 = ff1ff41189c3
TX: 0x109 = 00200080000000a7
TX: 0x199 = 2f7d200004ffa03b
TX: 0x169 = 8e8128740693a05a
TX: 0x119 = ff1ff4118ac4
TX: 0x109 = 00400080000000c7
TX: 0x159 = fbff4fabff570000
TX: 0x149 = 0026026aaa045fe5
TX: 0x129 = 000000205086
TX: 0x1A9 = 00000c5094
🎯 RADAR STATUS (0x300): State=7, Scan=0, Power=1
CAN error: Could not read from serial device
CAN decode error: non-hexadecimal number found in fromhex() arg at position 15
CAN error: Could not read from serial device
TX: 0x199 = 2f7d200004ffb0f6
TX: 0x169 = 91c1287c8694b036
TX: 0x119 = ff1ff4118bc5
TX: 0x109 = 00600080000000e7
TX: 0x199 = 2f7d200004ffc0af
TX: 0x169 = 942129888695c0b7
TX: 0x119 = ff1ff4118cc6
TX: 0x109 = 0080008000000007
TX: 0x159 = fbff4fbbff670000
TX: 0x149 = 0026026aaa046ff5
TX: 0x129 = 000000206096
TX: 0x1A9 = 00000c60a4
TX: 0x209 = 00ff945213038000
TX: 0x219 = 000000000000e0b8
TX: 0x17C = 0040040e1c000000
TX: 0x199 = 2f7d200004ffd062
TX: 0x169 = 976129940697d098
TX: 0x119 = ff1ff4118dc7
TX: 0x109 = 00a0008000000027
⚠️  ERROR CODE (0x3FF): 48
TX: 0x199 = 2f7d200004ffe028
TX: 0x169 = 9aa1299c0698e0f4
TX: 0x119 = ff1ff4118ec8
TX: 0x109 = 00c0008000000047
TX: 0x159 = fbff4fcbff770000
TX: 0x149 = 0026026aaa047f05
TX: 0x129 = 0000002070a6
TX: 0x1A9 = 00000c70b4
🎯 RADAR STATUS (0x300): State=14, Scan=12, Power=193
TX: 0x199 = 2f7d200004fff0e5
TX: 0x169 = 9d012aa80699f075
TX: 0x119 = ff1ff4118fc9
TX: 0x109 = 00e0008000000067
TX: 0x199 = 2f7d200004ff009a
TX: 0x169 = 9f412ab4869a0054
TX: 0x119 = ff1ff41180ba
TX: 0x109 = 0000008000000087
TX: 0x159 = fbff4fdbff870000
TX: 0x149 = 0026026aaa048f15
TX: 0x129 = 0000002080b6
TX: 0x1A9 = 00000c80c4
TX: 0x199 = 2f7d200004ff1057
TX: 0x169 = a2a12abc869b10d0
TX: 0x119 = ff1ff41181bb
TX: 0x109 = 00200080000000a7
TX: 0x199 = 2f7d200004ff201d
TX: 0x169 = a5e12ac8869c2030
TX: 0x119 = ff1ff41182bc
TX: 0x109 = 00400080000000c7
⚠️  ERROR CODE (0x3FF): 72
TX: 0x159 = fbff4febff970000
TX: 0x149 = 0026026aaa049f25
TX: 0x129 = 0000002090c6
TX: 0x1A9 = 00000c90d4
TX: 0x199 = 2f7d200004ff30d0
TX: 0x169 = a8212bd4069e3012
TX: 0x119 = ff1ff41183bd
TX: 0x109 = 00600080000000e7
TX: 0x199 = 2f7d200004ff4089
TX: 0x169 = ab812be0869f4012
TX: 0x119 = ff1ff41184be
TX: 0x109 = 0080008000000007
TX: 0x159 = fbff4ffbffa70000
TX: 0x149 = 0026026aaa04af35
TX: 0x129 = 00000020a0d6
TX: 0x1A9 = 00000ca0e4
CAN error: Could not read from serial device
TX: 0x199 = 2f7d200004ff5044
TX: 0x169 = aec12be886a0506e
TX: 0x119 = ff1ff41185bf
TX: 0x109 = 00a0008000000027
TX: 0x199 = 2f7d200004ff600e
TX: 0x169 = b1212cf406a26070
TX: 0x119 = ff1ff41186c0
TX: 0x109 = 00c0008000000047
TX: 0x159 = fbff4f0bffb70000
TX: 0x149 = 0026026aaa04bf45
TX: 0x129 = 00000020b0e6
TX: 0x1A9 = 00000cb0f4
TX: 0x209 = 00ff945213038000
TX: 0x219 = 000000000000f075
TX: 0x17C = 0040040f1f000000
TX: 0x2B9 = 100000000035594a
TX: 0x199 = 2f7d200004ff70c3
TX: 0x169 = b4612c0007a370d1
TX: 0x119 = ff1ff41187c1
TX: 0x109 = 00e0008000000067
⚠️  ERROR CODE (0x3FF): 80
TX: 0x199 = 2f7d200004ff80bc
TX: 0x169 = b7c12c0c87a480d1
TX: 0x119 = ff1ff41188c2
TX: 0x109 = 0000008000000087
TX: 0x159 = fbff4f1bffc70000
TX: 0x149 = 0026026aaa04cf55
TX: 0x129 = 00000020c0f6
TX: 0x1A9 = 00000cc004
TX: 0x199 = 2f7d200004ff9071
TX: 0x169 = b9012d1487a5902d
TX: 0x119 = ff1ff41189c3
TX: 0x109 = 00200080000000a7
TX: 0x199 = 2f7d200004ffa03b
TX: 0x169 = bc412d2087a6a08d
TX: 0x119 = ff1ff4118ac4
TX: 0x109 = 00400080000000c7
TX: 0x159 = fbff4f2bffd70000
TX: 0x149 = 0026026aaa04df65
TX: 0x129 = 00000020d006
TX: 0x1A9 = 00000cd014
🎯 RADAR STATUS (0x300): State=3, Scan=32, Power=193
TX: 0x199 = 2f7d200004ffb0f6
TX: 0x169 = bfa12d2c07a8b08e
TX: 0x119 = ff1ff4118bc5
TX: 0x109 = 00600080000000e7
TX: 0x199 = 2f7d200004ffc0af
TX: 0x169 = c2e12d3407a9c0ea
TX: 0x119 = ff1ff4118cc6
TX: 0x109 = 0080008000000007
TX: 0x159 = fbff4f3bffe70000
TX: 0x149 = 0026026aaa04ef75
TX: 0x129 = 00000020e016
TX: 0x1A9 = 00000ce024
TX: 0x199 = 2f7d200004ffd062
TX: 0x169 = c4212e4087aad0ca
TX: 0x119 = ff1ff4118dc7
TX: 0x109 = 00a0008000000027
CAN decode error: non-hexadecimal number found in fromhex() arg at position 15
CAN error: Could not read from serial device
TX: 0x199 = 2f7d200004ffe028
TX: 0x169 = c7812e4c87abe04a
TX: 0x119 = ff1ff4118ec8
TX: 0x109 = 00c0008000000047
TX: 0x159 = fbff4f4bfff70000
TX: 0x149 = 0026026aaa04ff85
TX: 0x129 = 00000020f026
TX: 0x1A9 = 00000cf034
TX: 0x199 = 2f7d200004fff0e5
TX: 0x169 = cac12e5407adf027
TX: 0x119 = ff1ff4118fc9
TX: 0x109 = 00e0008000000067
RX: 0x300 = 3a2cc11557003000
CAN error: Could not read from serial device
CAN decode error: non-hexadecimal number found in fromhex() arg at position 15
CAN error: Could not read from serial device
CAN decode error: non-hexadecimal number found in fromhex() arg at position 15
CAN error: Could not read from serial device
CAN error: Could not read from serial device
CAN error: Could not read from serial device
TX: 0x199 = 2f7d200004ff009a
TX: 0x169 = cd212f6007ae00a8
TX: 0x119 = ff1ff41180ba
TX: 0x109 = 0000008000000087
TX: 0x159 = fbff4f5bff070000
TX: 0x149 = 0026026aaa040f95
TX: 0x129 = 000000200036
TX: 0x1A9 = 00000c0044
TX: 0x209 = 00ff945213038000
TX: 0x219 = 000000000000000a
TX: 0x17C = 0040041021000000
TX: 0x199 = 2f7d200004ff1057
TX: 0x169 = d0612f6c07af1008
TX: 0x119 = ff1ff41181bb
TX: 0x109 = 00200080000000a7
TX: 0x199 = 2f7d200004ff201d
TX: 0x169 = d3a12f7487b020e4
TX: 0x119 = ff1ff41182bc
TX: 0x109 = 00400080000000c7
TX: 0x159 = fbff4f6bff170000
TX: 0x149 = 0026026aaa041fa5
TX: 0x129 = 000000201046
TX: 0x1A9 = 00000c1054
⚠️  ERROR CODE (0x3FF): 112
TX: 0x199 = 2f7d200004ff30d0
TX: 0x169 = d601308007b230e6
TX: 0x119 = ff1ff41183bd
TX: 0x109 = 00600080000000e7
TX: 0x199 = 2f7d200004ff4089
TX: 0x169 = d941308c07b34046
TX: 0x119 = ff1ff41184be
TX: 0x109 = 0080008000000007
TX: 0x159 = fbff4f7bff270000
TX: 0x149 = 0026026aaa042fb5
TX: 0x129 = 000000202056
TX: 0x1A9 = 00000c2064
🎯 RADAR STATUS (0x300): State=8, Scan=52, Power=129
TX: 0x199 = 2f7d200004ff5044
TX: 0x169 = dca1309887b45046
TX: 0x119 = ff1ff41185bf
TX: 0x109 = 00a0008000000027
TX: 0x199 = 2f7d200004ff600e
TX: 0x169 = dee130a087b560a1
TX: 0x119 = ff1ff41186c0
TX: 0x109 = 00c0008000000047
TX: 0x159 = fbff4f8bff370000
TX: 0x149 = 0026026aaa043fc5
TX: 0x129 = 000000203066
TX: 0x1A9 = 00000c3074
TX: 0x199 = 2f7d200004ff70c3
TX: 0x169 = e12131ac87b67002
TX: 0x119 = ff1ff41187c1
TX: 0x109 = 00e0008000000067
⚠️  ERROR CODE (0x3FF): 136
TX: 0x199 = 2f7d200004ff80bc
TX: 0x169 = e48131b807b88003
TX: 0x119 = ff1ff41188c2
TX: 0x109 = 0000008000000087
TX: 0x159 = fbff4f9bff470000
TX: 0x149 = 0026026aaa044fd5
TX: 0x129 = 000000204076
TX: 0x1A9 = 00000c4084
TX: 0x199 = 2f7d200004ff9071
TX: 0x169 = e7c131c007b9905f
TX: 0x119 = ff1ff41189c3
TX: 0x109 = 00200080000000a7
CAN error: Could not read from serial device
TX: 0x199 = 2f7d200004ffa03b
TX: 0x169 = ea0132cc87baa040
TX: 0x119 = ff1ff4118ac4
TX: 0x109 = 00400080000000c7
TX: 0x159 = fbff4fabff570000
TX: 0x149 = 0026026aaa045fe5
TX: 0x129 = 000000205086
TX: 0x1A9 = 00000c5094
TX: 0x209 = 00ff945213038000
TX: 0x219 = 00000000000010c7
TX: 0x17C = 0040041123000000
TX: 0x199 = 2f7d200004ffb0f6
TX: 0x169 = ed6132d887bbb0c0
TX: 0x119 = ff1ff4118bc5
TX: 0x109 = 00600080000000e7
TX: 0x199 = 2f7d200004ffc0af
TX: 0x169 = efa132e087bcc01b
TX: 0x119 = ff1ff4118cc6
TX: 0x109 = 0080008000000007
TX: 0x159 = fbff4fbbff670000
TX: 0x149 = 0026026aaa046ff5
TX: 0x129 = 000000206096
TX: 0x1A9 = 00000c60a4
⚠️  ERROR CODE (0x3FF): 144
TX: 0x199 = 2f7d200004ffd062
TX: 0x169 = f20133ec07bed01d
TX: 0x119 = ff1ff4118dc7
TX: 0x109 = 00a0008000000027
TX: 0x199 = 2f7d200004ffe028
TX: 0x169 = f54133f807bfe07d
TX: 0x119 = ff1ff4118ec8
TX: 0x109 = 00c0008000000047
TX: 0x159 = fbff4fcbff770000
TX: 0x149 = 0026026aaa047f05
TX: 0x129 = 0000002070a6
TX: 0x1A9 = 00000c70b4
TX: 0x199 = 2f7d200004fff0e5
TX: 0x169 = f8a1330488c0f07e
TX: 0x119 = ff1ff4118fc9
TX: 0x109 = 00e0008000000067
TX: 0x2B9 = 1153423745343347
🎯 RADAR STATUS (0x300): State=14, Scan=72, Power=193
TX: 0x199 = 2f7d200004ff009a
TX: 0x169 = fbe1330c08c2005b
TX: 0x119 = ff1ff41180ba
TX: 0x109 = 0000008000000087
TX: 0x159 = fbff4fdbff870000
TX: 0x149 = 0026026aaa048f15
TX: 0x129 = 0000002080b6
TX: 0x1A9 = 00000c80c4
TX: 0x199 = 2f7d200004ff1057
TX: 0x169 = fe41341808c310dc
TX: 0x119 = ff1ff41181bb
TX: 0x109 = 00200080000000a7
TX: 0x199 = 2f7d200004ff201d
TX: 0x169 = 0182342008c42039
TX: 0x119 = ff1ff41182bc
TX: 0x109 = 00400080000000c7
TX: 0x159 = fbff4febff970000
TX: 0x149 = 0026026aaa049f25
TX: 0x129 = 0000002090c6
TX: 0x1A9 = 00000c90d4
CAN decode error: non-hexadecimal number found in fromhex() arg at position 15
CAN decode error: non-hexadecimal number found in fromhex() arg at position 15
TX: 0x199 = 2f7d200004ff30d0
TX: 0x169 = 03c2342c88c53018
TX: 0x119 = ff1ff41183bd
TX: 0x109 = 00600080000000e7
TX: 0x199 = 2f7d200004ff4089
TX: 0x169 = 0602353888c64079
TX: 0x119 = ff1ff41184be
TX: 0x109 = 0080008000000007
TX: 0x159 = fbff4ffbffa70000
TX: 0x149 = 0026026aaa04af35
TX: 0x129 = 00000020a0d6
TX: 0x1A9 = 00000ca0e4
TX: 0x209 = 00ff945213038000
TX: 0x219 = 000000000000208d
TX: 0x17C = 0040041225000000
CAN error: Could not read from serial device
TX: 0x199 = 2f7d200004ff5044
TX: 0x169 = 0962354408c8507a
TX: 0x119 = ff1ff41185bf
TX: 0x109 = 00a0008000000027
TX: 0x199 = 2f7d200004ff600e
TX: 0x169 = 0cc2355008c960fa
TX: 0x119 = ff1ff41186c0
TX: 0x109 = 00c0008000000047
TX: 0x159 = fbff4f0bffb70000
TX: 0x149 = 0026026aaa04bf45
TX: 0x129 = 00000020b0e6
TX: 0x1A9 = 00000cb0f4
TX: 0x199 = 2f7d200004ff70c3
TX: 0x169 = 0f02365888ca70d7
TX: 0x119 = ff1ff41187c1
TX: 0x109 = 00e0008000000067
⚠️  ERROR CODE (0x3FF): 176
TX: 0x199 = 2f7d200004ff80bc
TX: 0x169 = 1242366488cb8037
TX: 0x119 = ff1ff41188c2
TX: 0x109 = 0000008000000087
TX: 0x159 = fbff4f1bffc70000
TX: 0x149 = 0026026aaa04cf55
TX: 0x129 = 00000020c0f6
TX: 0x1A9 = 00000cc004
TX: 0x199 = 2f7d200004ff9071
TX: 0x169 = 15a2366c08cd9034
TX: 0x119 = ff1ff41189c3
TX: 0x109 = 00200080000000a7
TX: 0x199 = 2f7d200004ffa03b
TX: 0x169 = 18e2367808cea094
TX: 0x119 = ff1ff4118ac4
TX: 0x109 = 00400080000000c7
TX: 0x159 = fbff4f2bffd70000
TX: 0x149 = 0026026aaa04df65
TX: 0x129 = 00000020d006
TX: 0x1A9 = 00000cd014
🎯 RADAR STATUS (0x300): State=8, Scan=96, Power=129
TX: 0x199 = 2f7d200004ffb0f6
TX: 0x169 = 1a22378488cfb074
TX: 0x119 = ff1ff4118bc5
TX: 0x109 = 00600080000000e7
TX: 0x199 = 2f7d200004ffc0af
TX: 0x169 = 1d82378c88d0c0f0
TX: 0x119 = ff1ff4118cc6
TX: 0x109 = 0080008000000007
TX: 0x159 = fbff4f3bffe70000
TX: 0x149 = 0026026aaa04ef75
TX: 0x129 = 00000020e016
TX: 0x1A9 = 00000ce024
TX: 0x199 = 2f7d200004ffd062
TX: 0x169 = 20c2379888d1d050
TX: 0x119 = ff1ff4118dc7
TX: 0x109 = 00a0008000000027
⚠️  ERROR CODE (0x3FF): 172 (UNKNOWN) payload=33ac08
TX: 0x199 = 2f7d200004ffe028
TX: 0x169 = 232238a408d3e052
TX: 0x119 = ff1ff4118ec8
TX: 0x109 = 00c0008000000047
TX: 0x159 = fbff4f4bfff70000
TX: 0x149 = 0026026aaa04ff85
TX: 0x129 = 00000020f026
TX: 0x1A9 = 00000cf034
TX: 0x209 = 00ff945213038000
TX: 0x219 = 0000000000003040
TX: 0x17C = 0040041327000000
TX: 0x199 = 2f7d200004fff0e5
TX: 0x169 = 256238ac08d4f0ad
TX: 0x119 = ff1ff4118fc9
TX: 0x109 = 00e0008000000067
TX: 0x199 = 2f7d200004ff009a
TX: 0x169 = 28a238b888d5008d
TX: 0x119 = ff1ff41180ba
TX: 0x109 = 0000008000000087
TX: 0x159 = fbff4f5bff070000
TX: 0x149 = 0026026aaa040f95
TX: 0x129 = 000000200036
TX: 0x1A9 = 00000c0044
CAN error: Could not read from serial device
CAN error: Could not read from serial device
CAN error: Could not read from serial device
TX: 0x199 = 2f7d200004ff1057
TX: 0x169 = 2b0239c088d6100a
TX: 0x119 = ff1ff41181bb
TX: 0x109 = 00200080000000a7
TX: 0x199 = 2f7d200004ff201d
TX: 0x169 = 2e4239cc08d820eb
TX: 0x119 = ff1ff41182bc
TX: 0x109 = 00400080000000c7
TX: 0x159 = fbff4f6bff170000
TX: 0x149 = 0026026aaa041fa5
TX: 0x129 = 000000201046
TX: 0x1A9 = 00000c1054
TX: 0x199 = 2f7d200004ff30d0
TX: 0x169 = 318239d808d9304b
TX: 0x119 = ff1ff41183bd
TX: 0x109 = 00600080000000e7
⚠️  ERROR CODE (0x3FF): 208
TX: 0x199 = 2f7d200004ff4089
TX: 0x169 = 33e239e008da40c6
TX: 0x119 = ff1ff41184be
TX: 0x109 = 0080008000000007
TX: 0x159 = fbff4f7bff270000
TX: 0x149 = 0026026aaa042fb5
TX: 0x129 = 000000202056
TX: 0x1A9 = 00000c2064
TX: 0x199 = 2f7d200004ff5044
TX: 0x169 = 36223aec88db50a7
TX: 0x119 = ff1ff41185bf
TX: 0x109 = 00a0008000000027
TX: 0x199 = 2f7d200004ff600e
TX: 0x169 = 39823af888dc6027
TX: 0x119 = ff1ff41186c0
TX: 0x109 = 00c0008000000047
TX: 0x159 = fbff4f8bff370000
TX: 0x149 = 0026026aaa043fc5
TX: 0x129 = 000000203066
TX: 0x1A9 = 00000c3074
🎯 RADAR STATUS (0x300): State=7, Scan=116, Power=193
TX: 0x199 = 2f7d200004ff70c3
TX: 0x169 = 3cc23a0009de7005
TX: 0x119 = ff1ff41187c1
TX: 0x109 = 00e0008000000067
Status: Not Present, VIN: 2/7, Time: 2.2s
TX: 0x199 = 2f7d200004ff80bc
TX: 0x169 = 3f023b0c09df8066
TX: 0x119 = ff1ff41188c2
TX: 0x109 = 0000008000000087
TX: 0x159 = fbff4f9bff470000
TX: 0x149 = 0026026aaa044fd5
TX: 0x129 = 000000204076
TX: 0x1A9 = 00000c4084
TX: 0x209 = 00ff945213038000
TX: 0x219 = 0000000000004019
TX: 0x17C = 0040041429000000
TX: 0x2B9 = 1246313133313035
VIN transmission cycle: 3/7
TX: 0x2A9 = 4a16434100000210
TX: 0x2D9 = 8040830000000000
TX: 0x199 = 2f7d200004ff9071
TX: 0x169 = 42623b1889e09066
TX: 0x119 = ff1ff41189c3
TX: 0x109 = 00200080000000a7
⚠️  ERROR CODE (0x3FF): 232
TX: 0x199 = 2f7d200004ffa03b
TX: 0x169 = 45a23b2489e1a0c6
TX: 0x119 = ff1ff4118ac4
TX: 0x109 = 00400080000000c7
TX: 0x159 = fbff4fabff570000
TX: 0x149 = 0026026aaa045fe5
TX: 0x129 = 000000205086
TX: 0x1A9 = 00000c5094
TX: 0x199 = 2f7d200004ffb0f6
TX: 0x169 = 48023c2c09e3b0c4
TX: 0x119 = ff1ff4118bc5
TX: 0x109 = 00600080000000e7
RX: 0x300 = 3c80811542003000
CAN error: Could not read from serial device
CAN error: Could not read from serial device
CAN error: Could not read from serial device
CAN error: Could not read from serial device
CAN decode error: non-hexadecimal number found in fromhex() arg at position 15
CAN error: Could not read from serial device
CAN decode error: non-hexadecimal number found in fromhex() arg at position 15
CAN error: Could not read from serial device
TX: 0x199 = 2f7d200004ffc0af
TX: 0x169 = 4b423c3889e4c0a4
TX: 0x119 = ff1ff4118cc6
TX: 0x109 = 0080008000000007
TX: 0x159 = fbff4fbbff670000
TX: 0x149 = 0026026aaa046ff5
TX: 0x129 = 000000206096
TX: 0x1A9 = 00000c60a4
TX: 0x199 = 2f7d200004ffd062
TX: 0x169 = 4da23c4489e5d023
TX: 0x119 = ff1ff4118dc7
TX: 0x109 = 00a0008000000027
TX: 0x199 = 2f7d200004ffe028
TX: 0x169 = 50e23c5009e7e004
TX: 0x119 = ff1ff4118ec8
TX: 0x109 = 00c0008000000047
TX: 0x159 = fbff4fcbff770000
TX: 0x149 = 0026026aaa047f05
TX: 0x129 = 0000002070a6
TX: 0x1A9 = 00000c70b4
⚠️  ERROR CODE (0x3FF): 240
TX: 0x199 = 2f7d200004fff0e5
TX: 0x169 = 53423d5809e8f081
TX: 0x119 = ff1ff4118fc9
TX: 0x109 = 00e0008000000067
TX: 0x199 = 2f7d200004ff009a
TX: 0x169 = 56823d6489e90061
TX: 0x119 = ff1ff41180ba
TX: 0x109 = 0000008000000087
TX: 0x159 = fbff4fdbff870000
TX: 0x149 = 0026026aaa048f15
TX: 0x129 = 0000002080b6
TX: 0x1A9 = 00000c80c4
🎯 RADAR STATUS (0x300): State=8, Scan=136, Power=129
TX: 0x199 = 2f7d200004ff1057
TX: 0x169 = 59e23d7089ea10e1
TX: 0x119 = ff1ff41181bb
TX: 0x109 = 00200080000000a7
TX: 0x199 = 2f7d200004ff201d
TX: 0x169 = 5c223e7809ec20bf
TX: 0x119 = ff1ff41182bc
TX: 0x109 = 00400080000000c7
TX: 0x159 = fbff4febff970000
TX: 0x149 = 0026026aaa049f25
TX: 0x129 = 0000002090c6
TX: 0x1A9 = 00000c90d4
TX: 0x209 = 00ff945213038000
TX: 0x219 = 00000000000050d4
TX: 0x17C = 004004152b000000
TX: 0x199 = 2f7d200004ff30d0
TX: 0x169 = 5e623e8409ed301e
TX: 0x119 = ff1ff41183bd
TX: 0x109 = 00600080000000e7
⚠️  ERROR CODE (0x3FF): 8
TX: 0x199 = 2f7d200004ff4089
TX: 0x169 = 61c23e9089ee401e
TX: 0x119 = ff1ff41184be
TX: 0x109 = 0080008000000007
TX: 0x159 = fbff4ffbffa70000
TX: 0x149 = 0026026aaa04af35
TX: 0x129 = 00000020a0d6
TX: 0x1A9 = 00000ca0e4
TX: 0x199 = 2f7d200004ff5044
TX: 0x169 = 64223f9c89ef509f
TX: 0x119 = ff1ff41185bf
TX: 0x109 = 00a0008000000027
CAN error: Could not read from serial device
TX: 0x199 = 2f7d200004ff600e
TX: 0x169 = 67623fa409f1607c
TX: 0x119 = ff1ff41186c0
TX: 0x109 = 00c0008000000047
CAN decode error: non-hexadecimal number found in fromhex() arg at position 15
TX: 0x159 = fbff4f0bffb70000
TX: 0x149 = 0026026aaa04bf45
TX: 0x129 = 00000020b0e6
TX: 0x1A9 = 00000cb0f4
CAN error: Could not read from serial device
CAN error: Could not read from serial device
TX: 0x199 = 2f7d200004ff70c3
TX: 0x169 = 6aa23fb009f270dc
TX: 0x119 = ff1ff41187c1
TX: 0x109 = 00e0008000000067
TX: 0x199 = 2f7d200004ff80bc
TX: 0x169 = 6d0240b889f380d9
TX: 0x119 = ff1ff41188c2
TX: 0x109 = 0000008000000087
TX: 0x159 = fbff4f1bffc70000
TX: 0x149 = 0026026aaa04cf55
TX: 0x129 = 00000020c0f6
TX: 0x1A9 = 00000cc004
TX: 0x199 = 2f7d200004ff9071
TX: 0x169 = 6f4240c489f49038
TX: 0x119 = ff1ff41189c3
TX: 0x109 = 00200080000000a7
⚠️  ERROR CODE (0x3FF): 16
TX: 0x199 = 2f7d200004ffa03b
TX: 0x169 = 728240d089f5a098
TX: 0x119 = ff1ff4118ac4
TX: 0x109 = 00400080000000c7
TX: 0x159 = fbff4f2bffd70000
TX: 0x149 = 0026026aaa04df65
TX: 0x129 = 00000020d006
TX: 0x1A9 = 00000cd014
TX: 0x199 = 2f7d200004ffb0f6
TX: 0x169 = 75e240d809f7b095
TX: 0x119 = ff1ff4118bc5
TX: 0x109 = 00600080000000e7
TX: 0x199 = 2f7d200004ffc0af
TX: 0x169 = 784241e489f8c096
TX: 0x119 = ff1ff4118cc6
TX: 0x109 = 0080008000000007
TX: 0x159 = fbff4f3bffe70000
TX: 0x149 = 0026026aaa04ef75
TX: 0x129 = 00000020e016
TX: 0x1A9 = 00000ce024
TX: 0x209 = 00ff945213038000
TX: 0x219 = 000000000000609e
TX: 0x17C = 004004162d000000
🎯 RADAR STATUS (0x300): State=6, Scan=160, Power=129
TX: 0x199 = 2f7d200004ffd062
TX: 0x169 = 7b8241f089f9d0f6
TX: 0x119 = ff1ff4118dc7
TX: 0x109 = 00a0008000000027
TX: 0x199 = 2f7d200004ffe028
TX: 0x169 = 7ec241fc09fbe0d7
TX: 0x119 = ff1ff4118ec8
TX: 0x109 = 00c0008000000047
TX: 0x159 = fbff4f4bfff70000
TX: 0x149 = 0026026aaa04ff85
TX: 0x129 = 00000020f026
TX: 0x1A9 = 00000cf034
TX: 0x199 = 2f7d200004fff0e5
TX: 0x169 = 802242040afcf054
TX: 0x119 = ff1ff4118fc9
TX: 0x109 = 00e0008000000067
⚠️  ERROR CODE (0x3FF): 40
TX: 0x199 = 2f7d200004ff009a
TX: 0x169 = 836242100afd00b4
TX: 0x119 = ff1ff41180ba
TX: 0x109 = 0000008000000087
TX: 0x159 = fbff4f5bff070000
TX: 0x149 = 0026026aaa040f95
TX: 0x129 = 000000200036
TX: 0x1A9 = 00000c0044
TX: 0x199 = 2f7d200004ff1057
TX: 0x169 = 86c242188afe10b0
TX: 0x119 = ff1ff41181bb
TX: 0x109 = 00200080000000a7
TX: 0x2B9 = 100000000035594a
CAN decode error: non-hexadecimal number found in fromhex() arg at position 15
CAN error: Could not read from serial device
CAN error: Could not read from serial device
TX: 0x199 = 2f7d200004ff201d
TX: 0x169 = 890243248aff2011
TX: 0x119 = ff1ff41182bc
TX: 0x109 = 00400080000000c7
TX: 0x159 = fbff4f6bff170000
TX: 0x149 = 0026026aaa041fa5
TX: 0x129 = 000000201046
TX: 0x1A9 = 00000c1054
TX: 0x199 = 2f7d200004ff30d0
TX: 0x169 = 8c4243300a0131f3
TX: 0x119 = ff1ff41183bd
TX: 0x109 = 00600080000000e7
TX: 0x199 = 2f7d200004ff4089
TX: 0x169 = 8ea243380a02416e
TX: 0x119 = ff1ff41184be
TX: 0x109 = 0080008000000007
TX: 0x159 = fbff4f7bff270000
TX: 0x149 = 0026026aaa042fb5
TX: 0x129 = 000000202056
TX: 0x1A9 = 00000c2064
⚠️  ERROR CODE (0x3FF): 48
TX: 0x199 = 2f7d200004ff5044
TX: 0x169 = 910244448a03516f
TX: 0x119 = ff1ff41185bf
TX: 0x109 = 00a0008000000027
TX: 0x199 = 2f7d200004ff600e
TX: 0x169 = 944244508a0461cf
TX: 0x119 = ff1ff41186c0
TX: 0x109 = 00c0008000000047
TX: 0x159 = fbff4f8bff370000
TX: 0x149 = 0026026aaa043fc5
TX: 0x129 = 000000203066
TX: 0x1A9 = 00000c3074
TX: 0x209 = 00ff945213038000
TX: 0x219 = 0000000000007053
TX: 0x17C = 004004172f000000
🎯 RADAR STATUS (0x300): State=7, Scan=180, Power=65
TX: 0x199 = 2f7d200004ff70c3
TX: 0x169 = 978244580a0671ac
TX: 0x119 = ff1ff41187c1
TX: 0x109 = 00e0008000000067
TX: 0x199 = 2f7d200004ff80bc
TX: 0x169 = 9ae244640a07812c
TX: 0x119 = ff1ff41188c2
TX: 0x109 = 0000008000000087
TX: 0x159 = fbff4f9bff470000
TX: 0x149 = 0026026aaa044fd5
TX: 0x129 = 000000204076
TX: 0x1A9 = 00000c4084
TX: 0x199 = 2f7d200004ff9071
TX: 0x169 = 9c2245708a08910c
TX: 0x119 = ff1ff41189c3
TX: 0x109 = 00200080000000a7
⚠️  ERROR CODE (0x3FF): 72
TX: 0x199 = 2f7d200004ffa03b
TX: 0x169 = 9f6245788a09a168
TX: 0x119 = ff1ff4118ac4
TX: 0x109 = 00400080000000c7
TX: 0x159 = fbff4fabff570000
TX: 0x149 = 0026026aaa045fe5
TX: 0x129 = 000000205086
TX: 0x1A9 = 00000c5094
TX: 0x199 = 2f7d200004ffb0f6
TX: 0x169 = a2c245840a0bb169
TX: 0x119 = ff1ff4118bc5
TX: 0x109 = 00600080000000e7
TX: 0x199 = 2f7d200004ffc0af
TX: 0x169 = a502468c0a0cc1c6
TX: 0x119 = ff1ff4118cc6
TX: 0x109 = 0080008000000007
RX: 0x300 = 3cbc411539003000
CAN error: Could not read from serial device
TX: 0x159 = fbff4fbbff670000
TX: 0x149 = 0026026aaa046ff5
TX: 0x129 = 000000206096
TX: 0x1A9 = 00000c60a4
CAN error: Could not read from serial device
TX: 0x199 = 2f7d200004ffd062
TX: 0x169 = a76246988a0dd1c5
TX: 0x119 = ff1ff4118dc7
TX: 0x109 = 00a0008000000027
TX: 0x199 = 2f7d200004ffe028
TX: 0x169 = aaa246a48a0ee125
TX: 0x119 = ff1ff4118ec8
TX: 0x109 = 00c0008000000047
TX: 0x159 = fbff4fcbff770000
TX: 0x149 = 0026026aaa047f05
TX: 0x129 = 0000002070a6
TX: 0x1A9 = 00000c70b4
TX: 0x199 = 2f7d200004fff0e5
TX: 0x169 = ade246ac0a10f102
TX: 0x119 = ff1ff4118fc9
TX: 0x109 = 00e0008000000067
⚠️  ERROR CODE (0x3FF): 80
TX: 0x199 = 2f7d200004ff009a
TX: 0x169 = b04247b80a110183
TX: 0x119 = ff1ff41180ba
TX: 0x109 = 0000008000000087
TX: 0x159 = fbff4fdbff870000
TX: 0x149 = 0026026aaa048f15
TX: 0x129 = 0000002080b6
TX: 0x1A9 = 00000c80c4
TX: 0x209 = 00ff945213038000
TX: 0x219 = 000000000000802c
TX: 0x17C = 0040041831000000
TX: 0x199 = 2f7d200004ff1057
TX: 0x169 = b28247c00a1211de
TX: 0x119 = ff1ff41181bb
TX: 0x109 = 00200080000000a7
TX: 0x199 = 2f7d200004ff201d
TX: 0x169 = b5e247cc8a1321de
TX: 0x119 = ff1ff41182bc
TX: 0x109 = 00400080000000c7
TX: 0x159 = fbff4febff970000
TX: 0x149 = 0026026aaa049f25
TX: 0x129 = 0000002090c6
TX: 0x1A9 = 00000c90d4
🎯 RADAR STATUS (0x300): State=6, Scan=204, Power=129
TX: 0x199 = 2f7d200004ff30d0
TX: 0x169 = b82248d88a14313f
TX: 0x119 = ff1ff41183bd
TX: 0x109 = 00600080000000e7
TX: 0x199 = 2f7d200004ff4089
TX: 0x169 = bb8248e00a16413c
TX: 0x119 = ff1ff41184be
TX: 0x109 = 0080008000000007
TX: 0x159 = fbff4ffbffa70000
TX: 0x149 = 0026026aaa04af35
TX: 0x129 = 00000020a0d6
TX: 0x1A9 = 00000ca0e4
TX: 0x199 = 2f7d200004ff5044
TX: 0x169 = bec248ec0a17519c
TX: 0x119 = ff1ff41185bf
TX: 0x109 = 00a0008000000027
CAN decode error: non-hexadecimal number found in fromhex() arg at position 15
TX: 0x199 = 2f7d200004ff600e
TX: 0x169 = c12249f88a18619d
TX: 0x119 = ff1ff41186c0
TX: 0x109 = 00c0008000000047
TX: 0x159 = fbff4f0bffb70000
TX: 0x149 = 0026026aaa04bf45
TX: 0x129 = 00000020b0e6
TX: 0x1A9 = 00000cb0f4
TX: 0x199 = 2f7d200004ff70c3
TX: 0x169 = c46249040b1a717f
TX: 0x119 = ff1ff41187c1
TX: 0x109 = 00e0008000000067
TX: 0x199 = 2f7d200004ff80bc
TX: 0x169 = c6c2490c0b1b81fa
TX: 0x119 = ff1ff41188c2
TX: 0x109 = 0000008000000087
TX: 0x159 = fbff4f1bffc70000
TX: 0x149 = 0026026aaa04cf55
TX: 0x129 = 00000020c0f6
TX: 0x1A9 = 00000cc004
CAN decode error: non-hexadecimal number found in fromhex() arg at position 15
CAN error: Could not read from serial device
CAN decode error: non-hexadecimal number found in fromhex() arg at position 15
CAN decode error: non-hexadecimal number found in fromhex() arg at position 15
CAN error: Could not read from serial device
CAN error: Could not read from serial device
TX: 0x199 = 2f7d200004ff9071
TX: 0x169 = c9024a188b1c91db
TX: 0x119 = ff1ff41189c3
TX: 0x109 = 00200080000000a7
TX: 0x199 = 2f7d200004ffa03b
TX: 0x169 = cc424a208b1da137
TX: 0x119 = ff1ff4118ac4
TX: 0x109 = 00400080000000c7
TX: 0x159 = fbff4f2bffd70000
TX: 0x149 = 0026026aaa04df65
TX: 0x129 = 00000020d006
TX: 0x1A9 = 00000cd014
TX: 0x209 = 00ff945213038000
TX: 0x219 = 00000000000090e1
TX: 0x17C = 0040041933000000
TX: 0x2B9 = 1153423745343347
TX: 0x199 = 2f7d200004ffb0f6
TX: 0x169 = cea24a2c8b1eb1b6
TX: 0x119 = ff1ff4118bc5
TX: 0x109 = 00600080000000e7
⚠️  ERROR CODE (0x3FF): 112
TX: 0x199 = 2f7d200004ffc0af
TX: 0x169 = d1e24a340b20c193
TX: 0x119 = ff1ff4118cc6
TX: 0x109 = 0080008000000007
TX: 0x159 = fbff4f3bffe70000
TX: 0x149 = 0026026aaa04ef75
TX: 0x129 = 00000020e016
TX: 0x1A9 = 00000ce024
TX: 0x199 = 2f7d200004ffd062
TX: 0x169 = d4424b400b21d114
TX: 0x119 = ff1ff4118dc7
TX: 0x109 = 00a0008000000027
🎯 RADAR STATUS (0x300): State=15, Scan=228, Power=129
TX: 0x199 = 2f7d200004ffe028
TX: 0x169 = d7824b4c8b22e1f4
TX: 0x119 = ff1ff4118ec8
TX: 0x109 = 00c0008000000047
TX: 0x159 = fbff4f4bfff70000
TX: 0x149 = 0026026aaa04ff85
TX: 0x129 = 00000020f026
TX: 0x1A9 = 00000cf034
TX: 0x199 = 2f7d200004fff0e5
TX: 0x169 = d9c24b548b23f14f
TX: 0x119 = ff1ff4118fc9
TX: 0x109 = 00e0008000000067
TX: 0x199 = 2f7d200004ff009a
TX: 0x169 = dc224c600b250151
TX: 0x119 = ff1ff41180ba
TX: 0x109 = 0000008000000087
TX: 0x159 = fbff4f5bff070000
TX: 0x149 = 0026026aaa040f95
TX: 0x129 = 000000200036
TX: 0x1A9 = 00000c0044
⚠️  ERROR CODE (0x3FF): 136
TX: 0x199 = 2f7d200004ff1057
TX: 0x169 = df824c6c0b2611d1
TX: 0x119 = ff1ff41181bb
TX: 0x109 = 00200080000000a7
TX: 0x199 = 2f7d200004ff201d
TX: 0x169 = e2c24c788b2721b1
TX: 0x119 = ff1ff41182bc
TX: 0x109 = 00400080000000c7
TX: 0x159 = fbff4f6bff170000
TX: 0x149 = 0026026aaa041fa5
TX: 0x129 = 000000201046
TX: 0x1A9 = 00000c1054
CAN error: Could not read from serial device
CAN error: Could not read from serial device
TX: 0x199 = 2f7d200004ff30d0
TX: 0x169 = e5224d800b2931af
TX: 0x119 = ff1ff41183bd
TX: 0x109 = 00600080000000e7
TX: 0x199 = 2f7d200004ff4089
TX: 0x169 = e8624d8c0b2a410f
TX: 0x119 = ff1ff41184be
TX: 0x109 = 0080008000000007
TX: 0x159 = fbff4f7bff270000
TX: 0x149 = 0026026aaa042fb5
TX: 0x129 = 000000202056
TX: 0x1A9 = 00000c2064
TX: 0x209 = 00ff945213038000
TX: 0x219 = 000000000000a0ab
TX: 0x17C = 0040041a35000000
TX: 0x199 = 2f7d200004ff5044
TX: 0x169 = eaa24d940b2b516a
TX: 0x119 = ff1ff41185bf
TX: 0x109 = 00a0008000000027
TX: 0x199 = 2f7d200004ff600e
TX: 0x169 = ede24da08b2c614a
TX: 0x119 = ff1ff41186c0
TX: 0x109 = 00c0008000000047
TX: 0x159 = fbff4f8bff370000
TX: 0x149 = 0026026aaa043fc5
TX: 0x129 = 000000203066
TX: 0x1A9 = 00000c3074
⚠️  ERROR CODE (0x3FF): 144
TX: 0x199 = 2f7d200004ff70c3
TX: 0x169 = ef424ea88b2d71c6
TX: 0x119 = ff1ff41187c1
TX: 0x109 = 00e0008000000067
TX: 0x199 = 2f7d200004ff80bc
TX: 0x169 = f2a24eb40b2f81c7
TX: 0x119 = ff1ff41188c2
TX: 0x109 = 0000008000000087
TX: 0x159 = fbff4f9bff470000
TX: 0x149 = 0026026aaa044fd5
TX: 0x129 = 000000204076
TX: 0x1A9 = 00000c4084
TX: 0x199 = 2f7d200004ff9071
TX: 0x169 = f5e24ec00b309127
TX: 0x119 = ff1ff41189c3
TX: 0x109 = 00200080000000a7
🎯 RADAR STATUS (0x300): State=15, Scan=248, Power=129
TX: 0x199 = 2f7d200004ffa03b
TX: 0x169 = f8424fc88b31a124
TX: 0x119 = ff1ff4118ac4
TX: 0x109 = 00400080000000c7
TX: 0x159 = fbff4fabff570000
TX: 0x149 = 0026026aaa045fe5
TX: 0x129 = 000000205086
TX: 0x1A9 = 00000c5094
TX: 0x199 = 2f7d200004ffb0f6
TX: 0x169 = fb824fd48b32b184
TX: 0x119 = ff1ff4118bc5
TX: 0x109 = 00600080000000e7
TX: 0x199 = 2f7d200004ffc0af
TX: 0x169 = fee24fe00b34c185
TX: 0x119 = ff1ff4118cc6
TX: 0x109 = 0080008000000007
TX: 0x159 = fbff4fbbff670000
TX: 0x149 = 0026026aaa046ff5
TX: 0x129 = 000000206096
TX: 0x1A9 = 00000c60a4
⚠️  ERROR CODE (0x3FF): 168
CAN error: Could not read from serial device
TX: 0x199 = 2f7d200004ffd062
TX: 0x169 = 002350e80b35d1e2
TX: 0x119 = ff1ff4118dc7
TX: 0x109 = 00a0008000000027
TX: 0x199 = 2f7d200004ffe028
TX: 0x169 = 036350f48b36e1c2
TX: 0x119 = ff1ff4118ec8
TX: 0x109 = 00c0008000000047
TX: 0x159 = fbff4fcbff770000
TX: 0x149 = 0026026aaa047f05
TX: 0x129 = 0000002070a6
TX: 0x1A9 = 00000c70b4
TX: 0x209 = 00ff945213038000
TX: 0x219 = 000000000000b066
TX: 0x17C = 0040041b37000000
🎯 RADAR STATUS (0x300): State=1, Scan=4, Power=66
TX: 0x199 = 2f7d200004fff0e5
TX: 0x169 = 05c350fc8b37f13d
TX: 0x119 = ff1ff4118fc9
TX: 0x109 = 00e0008000000067
TX: 0x199 = 2f7d200004ff009a
TX: 0x169 = 080351080c390120
TX: 0x119 = ff1ff41180ba
TX: 0x109 = 0000008000000087
TX: 0x159 = fbff4fdbff870000
TX: 0x149 = 0026026aaa048f15
TX: 0x129 = 0000002080b6
TX: 0x1A9 = 00000c80c4
TX: 0x199 = 2f7d200004ff1057
TX: 0x169 = 0b6351140c3a11a0
TX: 0x119 = ff1ff41181bb
TX: 0x109 = 00200080000000a7
⚠️  ERROR CODE (0x3FF): 176
TX: 0x199 = 2f7d200004ff201d
TX: 0x169 = 0ea3511c8c3b217c
TX: 0x119 = ff1ff41182bc
TX: 0x109 = 00400080000000c7
TX: 0x159 = fbff4febff970000
TX: 0x149 = 0026026aaa049f25
TX: 0x129 = 0000002090c6
TX: 0x1A9 = 00000c90d4
TX: 0x199 = 2f7d200004ff30d0
TX: 0x169 = 110352288c3c31fd
TX: 0x119 = ff1ff41183bd
TX: 0x109 = 00600080000000e7
TX: 0x2B9 = 1246313133313035
VIN transmission cycle: 4/7
🎯 RADAR STATUS (0x300): State=15, Scan=16, Power=2
TX: 0x199 = 2f7d200004ff4089
TX: 0x169 = 134352300c3e41d9
TX: 0x119 = ff1ff41184be
TX: 0x109 = 0080008000000007
TX: 0x159 = fbff4ffbffa70000
TX: 0x149 = 0026026aaa04af35
TX: 0x129 = 00000020a0d6
TX: 0x1A9 = 00000ca0e4
TX: 0x199 = 2f7d200004ff5044
TX: 0x169 = 1683523c0c3f5139
TX: 0x119 = ff1ff41185bf
TX: 0x109 = 00a0008000000027
CAN decode error: non-hexadecimal number found in fromhex() arg at position 15
CAN decode error: non-hexadecimal number found in fromhex() arg at position 15
CAN error: Could not read from serial device
TX: 0x199 = 2f7d200004ff600e
TX: 0x169 = 19e352488c406139
TX: 0x119 = ff1ff41186c0
TX: 0x109 = 00c0008000000047
TX: 0x159 = fbff4f0bffb70000
TX: 0x149 = 0026026aaa04bf45
TX: 0x129 = 00000020b0e6
TX: 0x1A9 = 00000cb0f4
⚠️  ERROR CODE (0x3FF): 200
TX: 0x199 = 2f7d200004ff70c3
TX: 0x169 = 1c2353508c417196
TX: 0x119 = ff1ff41187c1
TX: 0x109 = 00e0008000000067
TX: 0x199 = 2f7d200004ff80bc
TX: 0x169 = 1e83535c0c438196
TX: 0x119 = ff1ff41188c2
TX: 0x109 = 0000008000000087
TX: 0x159 = fbff4f1bffc70000
TX: 0x149 = 0026026aaa04cf55
TX: 0x129 = 00000020c0f6
TX: 0x1A9 = 00000cc004
TX: 0x209 = 00ff945213038000
TX: 0x219 = 000000000000c03f
TX: 0x17C = 0040041d3a000000
🎯 RADAR STATUS (0x300): State=1, Scan=24, Power=2
TX: 0x199 = 2f7d200004ff9071
TX: 0x169 = 21c353640c4491f2
TX: 0x119 = ff1ff41189c3
TX: 0x109 = 00200080000000a7
TX: 0x199 = 2f7d200004ffa03b
TX: 0x169 = 230354700c45a152
TX: 0x119 = ff1ff4118ac4
TX: 0x109 = 00400080000000c7
TX: 0x159 = fbff4f2bffd70000
TX: 0x149 = 0026026aaa04df65
TX: 0x129 = 00000020d006
TX: 0x1A9 = 00000cd014
TX: 0x199 = 2f7d200004ffb0f6
TX: 0x169 = 266354788c46b14e
TX: 0x119 = ff1ff4118bc5
TX: 0x109 = 00600080000000e7
TX: 0x199 = 2f7d200004ffc0af
TX: 0x169 = 29a354848c47c1ae
TX: 0x119 = ff1ff4118cc6
TX: 0x109 = 0080008000000007
TX: 0x159 = fbff4f3bffe70000
TX: 0x149 = 0026026aaa04ef75
TX: 0x129 = 00000020e016
TX: 0x1A9 = 00000ce024
⚠️  ERROR CODE (0x3FF): 208
TX: 0x199 = 2f7d200004ffd062
TX: 0x169 = 2b03558c0c49d1ab
TX: 0x119 = ff1ff4118dc7
TX: 0x109 = 00a0008000000027
TX: 0x199 = 2f7d200004ffe028
TX: 0x169 = 2e4355980c4ae10b
TX: 0x119 = ff1ff4118ec8
TX: 0x109 = 00c0008000000047
TX: 0x159 = fbff4f4bfff70000
TX: 0x149 = 0026026aaa04ff85
TX: 0x129 = 00000020f026
TX: 0x1A9 = 00000cf034
TX: 0x199 = 2f7d200004fff0e5
TX: 0x169 = 31a355a48c4bf10b
TX: 0x119 = ff1ff4118fc9
TX: 0x109 = 00e0008000000067
CAN error: Could not read from serial device
RX: 0x300 = 2f2442152e003080
CAN decode error: non-hexadecimal number found in fromhex() arg at position 7
CAN error: Could not read from serial device
CAN decode error: non-hexadecimal number found in fromhex() arg at position 15
CAN error: Could not read from serial device
TX: 0x199 = 2f7d200004ff009a
TX: 0x169 = 34e355ac8c4c0167
TX: 0x119 = ff1ff41180ba
TX: 0x109 = 0000008000000087
TX: 0x159 = fbff4f5bff070000
TX: 0x149 = 0026026aaa040f95
TX: 0x129 = 000000200036
TX: 0x1A9 = 00000c0044
TX: 0x199 = 2f7d200004ff1057
TX: 0x169 = 364356b80c4e1168
TX: 0x119 = ff1ff41181bb
TX: 0x109 = 00200080000000a7
TX: 0x199 = 2f7d200004ff201d
TX: 0x169 = 398356c00c4f21c4
TX: 0x119 = ff1ff41182bc
TX: 0x109 = 00400080000000c7
TX: 0x159 = fbff4f6bff170000
TX: 0x149 = 0026026aaa041fa5
TX: 0x129 = 000000201046
TX: 0x1A9 = 00000c1054
TX: 0x209 = 00ff945213038000
TX: 0x219 = 000000000000d0f2
TX: 0x17C = 0040041e3c000000
⚠️  ERROR CODE (0x3FF): 232
TX: 0x199 = 2f7d200004ff30d0
TX: 0x169 = 3cc356cc8c5031a4
TX: 0x119 = ff1ff41183bd
TX: 0x109 = 00600080000000e7
TX: 0x199 = 2f7d200004ff4089
TX: 0x169 = 3e0357d48c514100
TX: 0x119 = ff1ff41184be
TX: 0x109 = 0080008000000007
TX: 0x159 = fbff4f7bff270000
TX: 0x149 = 0026026aaa042fb5
TX: 0x129 = 000000202056
TX: 0x1A9 = 00000c2064
🎯 RADAR STATUS (0x300): State=1, Scan=44, Power=66
TX: 0x199 = 2f7d200004ff5044
TX: 0x169 = 416357e08c525180
TX: 0x119 = ff1ff41185bf
TX: 0x109 = 00a0008000000027
TX: 0x199 = 2f7d200004ff600e
TX: 0x169 = 44a357e80c54615d
TX: 0x119 = ff1ff41186c0
TX: 0x109 = 00c0008000000047
TX: 0x159 = fbff4f8bff370000
TX: 0x149 = 0026026aaa043fc5
TX: 0x129 = 000000203066
TX: 0x1A9 = 00000c3074
TX: 0x199 = 2f7d200004ff70c3
TX: 0x169 = 460358f40c5571dd
TX: 0x119 = ff1ff41187c1
TX: 0x109 = 00e0008000000067
⚠️  ERROR CODE (0x3FF): 240
TX: 0x199 = 2f7d200004ff80bc
TX: 0x169 = 484358fc0c568138
TX: 0x119 = ff1ff41188c2
TX: 0x109 = 0000008000000087
TX: 0x159 = fbff4f9bff470000
TX: 0x149 = 0026026aaa044fd5
TX: 0x129 = 000000204076
TX: 0x1A9 = 00000c4084
TX: 0x199 = 2f7d200004ff9071
TX: 0x169 = 4b8358088d579119
TX: 0x119 = ff1ff41189c3
TX: 0x109 = 00200080000000a7
TX: 0x199 = 2f7d200004ffa03b
TX: 0x169 = 4ee358100d59a116
TX: 0x119 = ff1ff4118ac4
TX: 0x109 = 00400080000000c7
🎯 RADAR STATUS (0x300): State=15, Scan=56, Power=2
CAN error: Could not read from serial device
TX: 0x159 = fbff4fabff570000
TX: 0x149 = 0026026aaa045fe5
TX: 0x129 = 000000205086
TX: 0x1A9 = 00000c5094
TX: 0x199 = 2f7d200004ffb0f6
TX: 0x169 = 5143591c0d5ab197
TX: 0x119 = ff1ff4118bc5
TX: 0x109 = 00600080000000e7
Status: Not Present, VIN: 4/7, Time: 3.4s
TX: 0x199 = 2f7d200004ffc0af
TX: 0x169 = 548359288d5bc177
TX: 0x119 = ff1ff4118cc6
TX: 0x109 = 0080008000000007
TX: 0x159 = fbff4fbbff670000
TX: 0x149 = 0026026aaa046ff5
TX: 0x129 = 000000206096
TX: 0x1A9 = 00000c60a4
TX: 0x209 = 00ff945213038000
TX: 0x219 = 000000000000e0b8
TX: 0x17C = 0040041f3e000000
TX: 0x2B9 = 100000000035594a
TX: 0x2A9 = 4a16434100000210
TX: 0x2D9 = 8040830000000000
TX: 0x199 = 2f7d200004ffd062
TX: 0x169 = 56e359308d5cd1f2
TX: 0x119 = ff1ff4118dc7
TX: 0x109 = 00a0008000000027
⚠️  ERROR CODE (0x3FF): 8
TX: 0x199 = 2f7d200004ffe028
TX: 0x169 = 59235a3c0d5ee1d4
TX: 0x119 = ff1ff4118ec8
TX: 0x109 = 00c0008000000047
TX: 0x159 = fbff4fcbff770000
TX: 0x149 = 0026026aaa047f05
TX: 0x129 = 0000002070a6
TX: 0x1A9 = 00000c70b4
TX: 0x199 = 2f7d200004fff0e5
TX: 0x169 = 5b635a440d5ff12f
TX: 0x119 = ff1ff4118fc9
TX: 0x109 = 00e0008000000067
🎯 RADAR STATUS (0x300): State=2, Scan=64, Power=2
TX: 0x199 = 2f7d200004ff009a
TX: 0x169 = 5ec35a500d6001af
TX: 0x119 = ff1ff41180ba
TX: 0x109 = 0000008000000087
TX: 0x159 = fbff4fdbff870000
TX: 0x149 = 0026026aaa048f15
TX: 0x129 = 0000002080b6
TX: 0x1A9 = 00000c80c4
TX: 0x199 = 2f7d200004ff1057
TX: 0x169 = 61035b588d61118c
TX: 0x119 = ff1ff41181bb
TX: 0x109 = 00200080000000a7
TX: 0x199 = 2f7d200004ff201d
TX: 0x169 = 64635b648d62210c
TX: 0x119 = ff1ff41182bc
TX: 0x109 = 00400080000000c7
TX: 0x159 = fbff4febff970000
TX: 0x149 = 0026026aaa049f25
TX: 0x129 = 0000002090c6
TX: 0x1A9 = 00000c90d4
⚠️  ERROR CODE (0x3FF): 16
TX: 0x199 = 2f7d200004ff30d0
TX: 0x169 = 66a35b700d6431ec
TX: 0x119 = ff1ff41183bd
TX: 0x109 = 00600080000000e7
TX: 0x199 = 2f7d200004ff4089
TX: 0x169 = 69035c780d654169
TX: 0x119 = ff1ff41184be
TX: 0x109 = 0080008000000007
TX: 0x159 = fbff4ffbffa70000
TX: 0x149 = 0026026aaa04af35
TX: 0x129 = 00000020a0d6
TX: 0x1A9 = 00000ca0e4
TX: 0x199 = 2f7d200004ff5044
TX: 0x169 = 6c435c848d665149
TX: 0x119 = ff1ff41185bf
TX: 0x109 = 00a0008000000027
🎯 RADAR STATUS (0x300): State=15, Scan=76, Power=66
CAN error: Could not read from serial device
TX: 0x199 = 2f7d200004ff600e
TX: 0x169 = 6e835c8c8d6761a4
TX: 0x119 = ff1ff41186c0
TX: 0x109 = 00c0008000000047
TX: 0x159 = fbff4f0bffb70000
TX: 0x149 = 0026026aaa04bf45
TX: 0x129 = 00000020b0e6
TX: 0x1A9 = 00000cb0f4
TX: 0x209 = 00ff945213038000
TX: 0x219 = 000000000000f075
TX: 0x17C = 0040042040000000
TX: 0x199 = 2f7d200004ff70c3
TX: 0x169 = 71e35c980d6971a5
TX: 0x119 = ff1ff41187c1
TX: 0x109 = 00e0008000000067
TX: 0x199 = 2f7d200004ff80bc
TX: 0x169 = 74235da00d6a8102
TX: 0x119 = ff1ff41188c2
TX: 0x109 = 0000008000000087
TX: 0x159 = fbff4f1bffc70000
TX: 0x149 = 0026026aaa04cf55
TX: 0x129 = 00000020c0f6
TX: 0x1A9 = 00000cc004
⚠️  ERROR CODE (0x3FF): 40
TX: 0x199 = 2f7d200004ff9071
TX: 0x169 = 76835dac8d6b9101
TX: 0x119 = ff1ff41189c3
TX: 0x109 = 00200080000000a7
TX: 0x199 = 2f7d200004ffa03b
TX: 0x169 = 79c35db48d6ca15d
TX: 0x119 = ff1ff4118ac4
TX: 0x109 = 00400080000000c7
TX: 0x159 = fbff4f2bffd70000
TX: 0x149 = 0026026aaa04df65
TX: 0x129 = 00000020d006
TX: 0x1A9 = 00000cd014
TX: 0x199 = 2f7d200004ffb0f6
TX: 0x169 = 7c235ec00d6eb15f
TX: 0x119 = ff1ff4118bc5
TX: 0x109 = 00600080000000e7
TX: 0x199 = 2f7d200004ffc0af
TX: 0x169 = 7e635ecc0d6fc1be
TX: 0x119 = ff1ff4118cc6
TX: 0x109 = 0080008000000007
TX: 0x159 = fbff4f3bffe70000
TX: 0x149 = 0026026aaa04ef75
TX: 0x129 = 00000020e016
TX: 0x1A9 = 00000ce024
🎯 RADAR STATUS (0x300): State=8, Scan=92, Power=2
TX: 0x199 = 2f7d200004ffd062
TX: 0x169 = 81c35ed48d70d1ba
TX: 0x119 = ff1ff4118dc7
TX: 0x109 = 00a0008000000027
TX: 0x199 = 2f7d200004ffe028
TX: 0x169 = 84035fe08d71e11b
TX: 0x119 = ff1ff4118ec8
TX: 0x109 = 00c0008000000047
TX: 0x159 = fbff4f4bfff70000
TX: 0x149 = 0026026aaa04ff85
TX: 0x129 = 00000020f026
TX: 0x1A9 = 00000cf034
CAN error: Could not read from serial device
TX: 0x199 = 2f7d200004fff0e5
TX: 0x169 = 86635fe80d73f117
TX: 0x119 = ff1ff4118fc9
TX: 0x109 = 00e0008000000067
⚠️  ERROR CODE (0x3FF): 48
TX: 0x199 = 2f7d200004ff009a
TX: 0x169 = 89a35ff48d7401f7
TX: 0x119 = ff1ff41180ba
TX: 0x109 = 0000008000000087
TX: 0x159 = fbff4f5bff070000
TX: 0x149 = 0026026aaa040f95
TX: 0x129 = 000000200036
TX: 0x1A9 = 00000c0044
TX: 0x209 = 00ff945213038000
TX: 0x219 = 000000000000000a
TX: 0x17C = 0040042142000000
TX: 0x199 = 2f7d200004ff1057
TX: 0x169 = 8c0360fc8d751174
TX: 0x119 = ff1ff41181bb
TX: 0x109 = 00200080000000a7
🎯 RADAR STATUS (0x300): State=8, Scan=100, Power=2
TX: 0x199 = 2f7d200004ff201d
TX: 0x169 = 8f4360088e7621d5
TX: 0x119 = ff1ff41182bc
TX: 0x109 = 00400080000000c7
TX: 0x159 = fbff4f6bff170000
TX: 0x149 = 0026026aaa041fa5
TX: 0x129 = 000000201046
TX: 0x1A9 = 00000c1054
TX: 0x199 = 2f7d200004ff30d0
TX: 0x169 = 91a360140e7831d5
TX: 0x119 = ff1ff41183bd
TX: 0x109 = 00600080000000e7
TX: 0x199 = 2f7d200004ff4089
TX: 0x169 = 94e3601c0e794131
TX: 0x119 = ff1ff41184be
TX: 0x109 = 0080008000000007
TX: 0x159 = fbff4f7bff270000
TX: 0x149 = 0026026aaa042fb5
TX: 0x129 = 000000202056
TX: 0x1A9 = 00000c2064
TX: 0x199 = 2f7d200004ff5044
TX: 0x169 = 962361240e7a518d
TX: 0x119 = ff1ff41185bf
TX: 0x109 = 00a0008000000027
TX: 0x2B9 = 1153423745343347
⚠️  ERROR CODE (0x3FF): 72
TX: 0x199 = 2f7d200004ff600e
TX: 0x169 = 998361308e7b618d
TX: 0x119 = ff1ff41186c0
TX: 0x109 = 00c0008000000047
TX: 0x159 = fbff4f8bff370000
TX: 0x149 = 0026026aaa043fc5
TX: 0x129 = 000000203066
TX: 0x1A9 = 00000c3074
TX: 0x199 = 2f7d200004ff70c3
TX: 0x169 = 9cc3613c0e7d716e
TX: 0x119 = ff1ff41187c1
TX: 0x109 = 00e0008000000067
🎯 RADAR STATUS (0x300): State=11, Scan=108, Power=66
CAN decode error: non-hexadecimal number found in fromhex() arg at position 15
CAN decode error: non-hexadecimal number found in fromhex() arg at position 15
CAN error: Could not read from serial device
CAN decode error: non-hexadecimal number found in fromhex() arg at position 15
CAN error: Could not read from serial device
TX: 0x199 = 2f7d200004ff80bc
TX: 0x169 = 9f2362440e7e81eb
TX: 0x119 = ff1ff41188c2
TX: 0x109 = 0000008000000087
TX: 0x159 = fbff4f9bff470000
TX: 0x149 = 0026026aaa044fd5
TX: 0x129 = 000000204076
TX: 0x1A9 = 00000c4084
TX: 0x199 = 2f7d200004ff9071
TX: 0x169 = a16362508e7f91ca
TX: 0x119 = ff1ff41189c3
TX: 0x109 = 00200080000000a7
TX: 0x199 = 2f7d200004ffa03b
TX: 0x169 = a4c362588e80a146
TX: 0x119 = ff1ff4118ac4
TX: 0x109 = 00400080000000c7
TX: 0x159 = fbff4fabff570000
TX: 0x149 = 0026026aaa045fe5
TX: 0x129 = 000000205086
TX: 0x1A9 = 00000c5094
TX: 0x209 = 00ff945213038000
TX: 0x219 = 00000000000010c7
TX: 0x17C = 0040042244000000
⚠️  ERROR CODE (0x3FF): 80
TX: 0x199 = 2f7d200004ffb0f6
TX: 0x169 = a70363640e82b128
TX: 0x119 = ff1ff4118bc5
TX: 0x109 = 00600080000000e7
TX: 0x199 = 2f7d200004ffc0af
TX: 0x169 = a96363700e83c1a7
TX: 0x119 = ff1ff4118cc6
TX: 0x109 = 0080008000000007
TX: 0x159 = fbff4fbbff670000
TX: 0x149 = 0026026aaa046ff5
TX: 0x129 = 000000206096
TX: 0x1A9 = 00000c60a4
TX: 0x199 = 2f7d200004ffd062
TX: 0x169 = aca363788e84d183
TX: 0x119 = ff1ff4118dc7
TX: 0x109 = 00a0008000000027
🎯 RADAR STATUS (0x300): State=6, Scan=120, Power=2
TX: 0x199 = 2f7d200004ffe028
TX: 0x169 = ae0364808e85e1ff
TX: 0x119 = ff1ff4118ec8
TX: 0x109 = 00c0008000000047
TX: 0x159 = fbff4fcbff770000
TX: 0x149 = 0026026aaa047f05
TX: 0x129 = 0000002070a6
TX: 0x1A9 = 00000c70b4
TX: 0x199 = 2f7d200004fff0e5
TX: 0x169 = b143648c0e87f1e0
TX: 0x119 = ff1ff4118fc9
TX: 0x109 = 00e0008000000067
TX: 0x199 = 2f7d200004ff009a
TX: 0x169 = b4a364980e880160
TX: 0x119 = ff1ff41180ba
TX: 0x109 = 0000008000000087
TX: 0x159 = fbff4fdbff870000
TX: 0x149 = 0026026aaa048f15
TX: 0x129 = 0000002080b6
TX: 0x1A9 = 00000c80c4
⚠️  ERROR CODE (0x3FF): 104
TX: 0x199 = 2f7d200004ff1057
TX: 0x169 = b6e364a08e89113b
TX: 0x119 = ff1ff41181bb
TX: 0x109 = 00200080000000a7
TX: 0x199 = 2f7d200004ff201d
TX: 0x169 = b94365ac8e8a21bc
TX: 0x119 = ff1ff41182bc
TX: 0x109 = 00400080000000c7
TX: 0x159 = fbff4febff970000
TX: 0x149 = 0026026aaa049f25
TX: 0x129 = 0000002090c6
TX: 0x1A9 = 00000c90d4
RX: 0x300 = 3b84021527003000
CAN error: Could not read from serial device
CAN error: Could not read from serial device
CAN error: Could not read from serial device
TX: 0x199 = 2f7d200004ff30d0
TX: 0x169 = bc8365b40e8c3199
TX: 0x119 = ff1ff41183bd
TX: 0x109 = 00600080000000e7
TX: 0x199 = 2f7d200004ff4089
TX: 0x169 = bfe365c08e8d4199
TX: 0x119 = ff1ff41184be
TX: 0x109 = 0080008000000007
TX: 0x159 = fbff4ffbffa70000
TX: 0x149 = 0026026aaa04af35
TX: 0x129 = 00000020a0d6
TX: 0x1A9 = 00000ca0e4
TX: 0x209 = 00ff945213038000
TX: 0x219 = 000000000000208d
TX: 0x17C = 0040042346000000
TX: 0x199 = 2f7d200004ff5044
TX: 0x169 = c12366cc8e8e51f9
TX: 0x119 = ff1ff41185bf
TX: 0x109 = 00a0008000000027
⚠️  ERROR CODE (0x3FF): 112
TX: 0x199 = 2f7d200004ff600e
TX: 0x169 = c48366d40e9061f6
TX: 0x119 = ff1ff41186c0
TX: 0x109 = 00c0008000000047
TX: 0x159 = fbff4f0bffb70000
TX: 0x149 = 0026026aaa04bf45
TX: 0x129 = 00000020b0e6
TX: 0x1A9 = 00000cb0f4
TX: 0x199 = 2f7d200004ff70c3
TX: 0x169 = c6c366e00e917155
TX: 0x119 = ff1ff41187c1
TX: 0x109 = 00e0008000000067
🎯 RADAR STATUS (0x300): State=8, Scan=140, Power=2
TX: 0x199 = 2f7d200004ff80bc
TX: 0x169 = c92367e88e928152
TX: 0x119 = ff1ff41188c2
TX: 0x109 = 0000008000000087
TX: 0x159 = fbff4f1bffc70000
TX: 0x149 = 0026026aaa04cf55
TX: 0x129 = 00000020c0f6
TX: 0x1A9 = 00000cc004
TX: 0x199 = 2f7d200004ff9071
TX: 0x169 = cc6367f48e9391b2
TX: 0x119 = ff1ff41189c3
TX: 0x109 = 00200080000000a7
TX: 0x199 = 2f7d200004ffa03b
TX: 0x169 = cea367fc8e94a10d
TX: 0x119 = ff1ff4118ac4
TX: 0x109 = 00400080000000c7
TX: 0x159 = fbff4f2bffd70000
TX: 0x149 = 0026026aaa04df65
TX: 0x129 = 00000020d006
TX: 0x1A9 = 00000cd014
TX: 0x199 = 2f7d200004ffb0f6
TX: 0x169 = d10368080f96b110
TX: 0x119 = ff1ff4118bc5
TX: 0x109 = 00600080000000e7
⚠️  ERROR CODE (0x3FF): 136
TX: 0x199 = 2f7d200004ffc0af
TX: 0x169 = d46368108f97c10c
TX: 0x119 = ff1ff4118cc6
TX: 0x109 = 0080008000000007
TX: 0x159 = fbff4f3bffe70000
TX: 0x149 = 0026026aaa04ef75
TX: 0x129 = 00000020e016
TX: 0x1A9 = 00000ce024
TX: 0x199 = 2f7d200004ffd062
TX: 0x169 = d6a3681c8f98d16b
TX: 0x119 = ff1ff4118dc7
TX: 0x109 = 00a0008000000027
CAN error: Could not read from serial device
TX: 0x199 = 2f7d200004ffe028
TX: 0x169 = d90369248f99e1e8
TX: 0x119 = ff1ff4118ec8
TX: 0x109 = 00c0008000000047
TX: 0x159 = fbff4f4bfff70000
TX: 0x149 = 0026026aaa04ff85
TX: 0x129 = 00000020f026
TX: 0x1A9 = 00000cf034
TX: 0x209 = 00ff945213038000
TX: 0x219 = 0000000000003040
TX: 0x17C = 0040042448000000
TX: 0x2B9 = 1246313133313035
VIN transmission cycle: 5/7
TX: 0x199 = 2f7d200004fff0e5
TX: 0x169 = db4369300f9bf1c8
TX: 0x119 = ff1ff4118fc9
TX: 0x109 = 00e0008000000067
TX: 0x199 = 2f7d200004ff009a
TX: 0x169 = de8369380f9c0124
TX: 0x119 = ff1ff41180ba
TX: 0x109 = 0000008000000087
TX: 0x159 = fbff4f5bff070000
TX: 0x149 = 0026026aaa040f95
TX: 0x129 = 000000200036
TX: 0x1A9 = 00000c0044
⚠️  ERROR CODE (0x3FF): 144
TX: 0x199 = 2f7d200004ff1057
TX: 0x169 = e1e369448f9d1124
TX: 0x119 = ff1ff41181bb
TX: 0x109 = 00200080000000a7
TX: 0x199 = 2f7d200004ff201d
TX: 0x169 = e3236a4c8f9e2180
TX: 0x119 = ff1ff41182bc
TX: 0x109 = 00400080000000c7
TX: 0x159 = fbff4f6bff170000
TX: 0x149 = 0026026aaa041fa5
TX: 0x129 = 000000201046
TX: 0x1A9 = 00000c1054
TX: 0x199 = 2f7d200004ff30d0
TX: 0x169 = e6836a580fa03181
TX: 0x119 = ff1ff41183bd
TX: 0x109 = 00600080000000e7
🎯 RADAR STATUS (0x300): State=6, Scan=164, Power=2
TX: 0x199 = 2f7d200004ff4089
TX: 0x169 = e9e36a608fa1417d
TX: 0x119 = ff1ff41184be
TX: 0x109 = 0080008000000007
TX: 0x159 = fbff4f7bff270000
TX: 0x149 = 0026026aaa042fb5
TX: 0x129 = 000000202056
TX: 0x1A9 = 00000c2064
TX: 0x199 = 2f7d200004ff5044
TX: 0x169 = eb236b6c8fa251dd
TX: 0x119 = ff1ff41185bf
TX: 0x109 = 00a0008000000027
TX: 0x199 = 2f7d200004ff600e
TX: 0x169 = ed636b748fa36138
TX: 0x119 = ff1ff41186c0
TX: 0x109 = 00c0008000000047
TX: 0x159 = fbff4f8bff370000
TX: 0x149 = 0026026aaa043fc5
TX: 0x129 = 000000203066
TX: 0x1A9 = 00000c3074
CAN error: Could not read from serial device
⚠️  ERROR CODE (0x3FF): 168
TX: 0x199 = 2f7d200004ff70c3
TX: 0x169 = f0a36b7c8fa47194
TX: 0x119 = ff1ff41187c1
TX: 0x109 = 00e0008000000067
TX: 0x199 = 2f7d200004ff80bc
TX: 0x169 = f3036c880fa68196
TX: 0x119 = ff1ff41188c2
TX: 0x109 = 0000008000000087
TX: 0x159 = fbff4f9bff470000
TX: 0x149 = 0026026aaa044fd5
TX: 0x129 = 000000204076
TX: 0x1A9 = 00000c4084
TX: 0x209 = 00ff945213038000
TX: 0x219 = 0000000000004019
TX: 0x17C = 004004254a000000
TX: 0x199 = 2f7d200004ff9071
TX: 0x169 = f5436c900fa791f1
TX: 0x119 = ff1ff41189c3
🎯 RADAR STATUS (0x300): State=12, Scan=172, Power=194
TX: 0x109 = 00200080000000a7
TX: 0x199 = 2f7d200004ffa03b
TX: 0x169 = f8a36c9c8fa8a1f1
TX: 0x119 = ff1ff4118ac4
TX: 0x109 = 00400080000000c7
TX: 0x159 = fbff4fabff570000
TX: 0x149 = 0026026aaa045fe5
TX: 0x129 = 000000205086
TX: 0x1A9 = 00000c5094
TX: 0x199 = 2f7d200004ffb0f6
TX: 0x169 = fae36ca80faab1d1
TX: 0x119 = ff1ff4118bc5
TX: 0x109 = 00600080000000e7
TX: 0x199 = 2f7d200004ffc0af
TX: 0x169 = fd436db00fabc14e
TX: 0x119 = ff1ff4118cc6
TX: 0x109 = 0080008000000007
TX: 0x159 = fbff4fbbff670000
TX: 0x149 = 0026026aaa046ff5
TX: 0x129 = 000000206096
TX: 0x1A9 = 00000c60a4
⚠️  ERROR CODE (0x3FF): 176
TX: 0x199 = 2f7d200004ffd062
TX: 0x169 = ff836dbc8facd12d
TX: 0x119 = ff1ff4118dc7
TX: 0x109 = 00a0008000000027
TX: 0x199 = 2f7d200004ffe028
TX: 0x169 = 02e46dc48fade1aa
TX: 0x119 = ff1ff4118ec8
TX: 0x109 = 00c0008000000047
TX: 0x159 = fbff4fcbff770000
TX: 0x149 = 0026026aaa047f05
TX: 0x129 = 0000002070a6
TX: 0x1A9 = 00000c70b4
🎯 RADAR STATUS (0x300): State=8, Scan=184, Power=194
TX: 0x199 = 2f7d200004fff0e5
TX: 0x169 = 05246ed00faff18c
TX: 0x119 = ff1ff4118fc9
TX: 0x109 = 00e0008000000067
TX: 0x199 = 2f7d200004ff009a
TX: 0x169 = 07846ed80fb00107
TX: 0x119 = ff1ff41180ba
TX: 0x109 = 0000008000000087
TX: 0x159 = fbff4fdbff870000
TX: 0x149 = 0026026aaa048f15
TX: 0x129 = 0000002080b6
TX: 0x1A9 = 00000c80c4
CAN error: Could not read from serial device
TX: 0x199 = 2f7d200004ff1057
TX: 0x169 = 0ac46ee48fb111e7
TX: 0x119 = ff1ff41181bb
TX: 0x109 = 00200080000000a7
⚠️  ERROR CODE (0x3FF): 200
TX: 0x199 = 2f7d200004ff201d
TX: 0x169 = 0d246fec8fb22164
TX: 0x119 = ff1ff41182bc
TX: 0x109 = 00400080000000c7
TX: 0x159 = fbff4febff970000
TX: 0x149 = 0026026aaa049f25
TX: 0x129 = 0000002090c6
TX: 0x1A9 = 00000c90d4
TX: 0x209 = 00ff945213038000
TX: 0x219 = 00000000000050d4
TX: 0x17C = 004004264c000000
TX: 0x199 = 2f7d200004ff30d0
TX: 0x169 = 0f646ff80fb43144
TX: 0x119 = ff1ff41183bd
TX: 0x109 = 00600080000000e7
🎯 RADAR STATUS (0x300): State=11, Scan=192, Power=194
TX: 0x199 = 2f7d200004ff4089
TX: 0x169 = 11a46f0010b541a0
TX: 0x119 = ff1ff41184be
TX: 0x109 = 0080008000000007
TX: 0x159 = fbff4ffbffa70000
TX: 0x149 = 0026026aaa04af35
TX: 0x129 = 00000020a0d6
TX: 0x1A9 = 00000ca0e4
TX: 0x199 = 2f7d200004ff5044
TX: 0x169 = 1404700810b6511d
TX: 0x119 = ff1ff41185bf
TX: 0x109 = 00a0008000000027
TX: 0x199 = 2f7d200004ff600e
TX: 0x169 = 1644701490b761fc
TX: 0x119 = ff1ff41186c0
TX: 0x109 = 00c0008000000047
TX: 0x159 = fbff4f0bffb70000
TX: 0x149 = 0026026aaa04bf45
TX: 0x129 = 00000020b0e6
TX: 0x1A9 = 00000cb0f4
⚠️  ERROR CODE (0x3FF): 208
TX: 0x199 = 2f7d200004ff70c3
TX: 0x169 = 19a4701c90b87178
TX: 0x119 = ff1ff41187c1
TX: 0x109 = 00e0008000000067
TX: 0x2B9 = 100000000035594a
TX: 0x199 = 2f7d200004ff80bc
TX: 0x169 = 1c04712810ba817a
TX: 0x119 = ff1ff41188c2
TX: 0x109 = 0000008000000087
TX: 0x159 = fbff4f1bffc70000
TX: 0x149 = 0026026aaa04cf55
TX: 0x129 = 00000020c0f6
TX: 0x1A9 = 00000cc004
TX: 0x199 = 2f7d200004ff9071
TX: 0x169 = 1e44713490bb9159
TX: 0x119 = ff1ff41189c3
TX: 0x109 = 00200080000000a7
CAN error: Could not read from serial device
TX: 0x199 = 2f7d200004ffa03b
TX: 0x169 = 21a4713c90bca1d5
TX: 0x119 = ff1ff4118ac4
TX: 0x109 = 00400080000000c7
TX: 0x159 = fbff4f2bffd70000
TX: 0x149 = 0026026aaa04df65
TX: 0x129 = 00000020d006
TX: 0x1A9 = 00000cd014
TX: 0x199 = 2f7d200004ffb0f6
TX: 0x169 = 24e4714810beb1b6
TX: 0x119 = ff1ff4118bc5
TX: 0x109 = 00600080000000e7
TX: 0x199 = 2f7d200004ffc0af
TX: 0x169 = 2644725010bfc132
TX: 0x119 = ff1ff4118cc6
TX: 0x109 = 0080008000000007
TX: 0x159 = fbff4f3bffe70000
TX: 0x149 = 0026026aaa04ef75
TX: 0x129 = 00000020e016
TX: 0x1A9 = 00000ce024
TX: 0x209 = 00ff945213038000
TX: 0x219 = 000000000000609e
TX: 0x17C = 004004274e000000
TX: 0x199 = 2f7d200004ffd062
TX: 0x169 = 2984725c90c0d112
TX: 0x119 = ff1ff4118dc7
TX: 0x109 = 00a0008000000027
⚠️  ERROR CODE (0x3FF): 232
TX: 0x199 = 2f7d200004ffe028
TX: 0x169 = 2ce4726490c1e18e
TX: 0x119 = ff1ff4118ec8
TX: 0x109 = 00c0008000000047
TX: 0x159 = fbff4f4bfff70000
TX: 0x149 = 0026026aaa04ff85
TX: 0x129 = 00000020f026
TX: 0x1A9 = 00000cf034
TX: 0x199 = 2f7d200004fff0e5
TX: 0x169 = 2e44737010c3f18f
TX: 0x119 = ff1ff4118fc9
TX: 0x109 = 00e0008000000067
🎯 RADAR STATUS (0x300): State=2, Scan=216, Power=194
TX: 0x199 = 2f7d200004ff009a
TX: 0x169 = 3184737c90c4016f
TX: 0x119 = ff1ff41180ba
TX: 0x109 = 0000008000000087
TX: 0x159 = fbff4f5bff070000
TX: 0x149 = 0026026aaa040f95
TX: 0x129 = 000000200036
TX: 0x1A9 = 00000c0044
TX: 0x199 = 2f7d200004ff1057
TX: 0x169 = 34e4738490c511eb
TX: 0x119 = ff1ff41181bb
TX: 0x109 = 00200080000000a7
TX: 0x199 = 2f7d200004ff201d
TX: 0x169 = 3744749010c721ed
TX: 0x119 = ff1ff41182bc
TX: 0x109 = 00400080000000c7
TX: 0x159 = fbff4f6bff170000
TX: 0x149 = 0026026aaa041fa5
TX: 0x129 = 000000201046
TX: 0x1A9 = 00000c1054
⚠️  ERROR CODE (0x3FF): 240
TX: 0x199 = 2f7d200004ff30d0
TX: 0x169 = 3984749890c831c8
TX: 0x119 = ff1ff41183bd
TX: 0x109 = 00600080000000e7
TX: 0x199 = 2f7d200004ff4089
TX: 0x169 = 3ce474a490c94148
TX: 0x119 = ff1ff41184be
TX: 0x109 = 0080008000000007
TX: 0x159 = fbff4f7bff270000
TX: 0x149 = 0026026aaa042fb5
TX: 0x129 = 000000202056
TX: 0x1A9 = 00000c2064
RX: 0x300 = 2fe4c21422000380
CAN error: Could not read from serial device
TX: 0x199 = 2f7d200004ff5044
TX: 0x169 = 3e2475ac10cb5125
CAN error: Could not read from serial device
TX: 0x119 = ff1ff41185bf
TX: 0x109 = 00a0008000000027
CAN error: Could not read from serial device
CAN decode error: non-hexadecimal number found in fromhex() arg at position 15
CAN error: Could not read from serial device
TX: 0x199 = 2f7d200004ff600e
TX: 0x169 = 418475b810cc61a5
TX: 0x119 = ff1ff41186c0
TX: 0x109 = 00c0008000000047
TX: 0x159 = fbff4f8bff370000
TX: 0x149 = 0026026aaa043fc5
TX: 0x129 = 000000203066
TX: 0x1A9 = 00000c3074
TX: 0x209 = 00ff945213038000
TX: 0x219 = 0000000000007053
TX: 0x17C = 0040042850000000
TX: 0x199 = 2f7d200004ff70c3
TX: 0x169 = 43c475c090cd7180
TX: 0x119 = ff1ff41187c1
TX: 0x109 = 00e0008000000067
TX: 0x199 = 2f7d200004ff80bc
TX: 0x169 = 462476cc90ce8101
TX: 0x119 = ff1ff41188c2
TX: 0x109 = 0000008000000087
TX: 0x159 = fbff4f9bff470000
TX: 0x149 = 0026026aaa044fd5
TX: 0x129 = 000000204076
TX: 0x1A9 = 00000c4084
⚠️  ERROR CODE (0x3FF): 8
TX: 0x199 = 2f7d200004ff9071
TX: 0x169 = 496476d410d091de
TX: 0x119 = ff1ff41189c3
TX: 0x109 = 00200080000000a7
TX: 0x199 = 2f7d200004ffa03b
TX: 0x169 = 4bc476e010d1a15d
TX: 0x119 = ff1ff4118ac4
TX: 0x109 = 00400080000000c7
TX: 0x159 = fbff4fabff570000
TX: 0x149 = 0026026aaa045fe5
TX: 0x129 = 000000205086
TX: 0x1A9 = 00000c5094
🎯 RADAR STATUS (0x300): State=2, Scan=236, Power=130
TX: 0x199 = 2f7d200004ffb0f6
TX: 0x169 = 4e0477e890d2b13a
TX: 0x119 = ff1ff4118bc5
TX: 0x109 = 00600080000000e7
TX: 0x199 = 2f7d200004ffc0af
TX: 0x169 = 516477f490d3c1ba
TX: 0x119 = ff1ff4118cc6
TX: 0x109 = 0080008000000007
TX: 0x159 = fbff4fbbff670000
TX: 0x149 = 0026026aaa046ff5
TX: 0x129 = 000000206096
TX: 0x1A9 = 00000c60a4
TX: 0x199 = 2f7d200004ffd062
TX: 0x169 = 53a477fc10d5d196
TX: 0x119 = ff1ff4118dc7
TX: 0x109 = 00a0008000000027
⚠️  ERROR CODE (0x3FF): 16
TX: 0x199 = 2f7d200004ffe028
TX: 0x169 = 55e4770411d6e1f2
TX: 0x119 = ff1ff4118ec8
TX: 0x109 = 00c0008000000047
TX: 0x159 = fbff4fcbff770000
TX: 0x149 = 0026026aaa047f05
TX: 0x129 = 0000002070a6
TX: 0x1A9 = 00000c70b4
TX: 0x199 = 2f7d200004fff0e5
TX: 0x169 = 5844781091d7f1f3
TX: 0x119 = ff1ff4118fc9
TX: 0x109 = 00e0008000000067
Status: Not Present, VIN: 5/7, Time: 4.5s
TX: 0x199 = 2f7d200004ff009a
TX: 0x169 = 5a84781891d8014e
TX: 0x119 = ff1ff41180ba
TX: 0x109 = 0000008000000087
TX: 0x159 = fbff4fdbff870000
TX: 0x149 = 0026026aaa048f15
TX: 0x129 = 0000002080b6
TX: 0x1A9 = 00000c80c4
TX: 0x209 = 00ff945213038000
TX: 0x219 = 000000000000802c
TX: 0x17C = 0040042952000000
TX: 0x2B9 = 1153423745343347
TX: 0x2A9 = 4a16434100000210
TX: 0x2D9 = 8040830000000000
RX: 0x300 = 3f8c21
CAN error: Could not read from serial device
CAN error: Could not read from serial device
TX: 0x199 = 2f7d200004ff1057
TX: 0x169 = 5ce4782491d911cd
TX: 0x119 = ff1ff41181bb
TX: 0x109 = 00200080000000a7
TX: 0x199 = 2f7d200004ff201d
TX: 0x169 = 5f24792c11db21ab
TX: 0x119 = ff1ff41182bc
TX: 0x109 = 00400080000000c7
TX: 0x159 = fbff4febff970000
TX: 0x149 = 0026026aaa049f25
TX: 0x129 = 0000002090c6
TX: 0x1A9 = 00000c90d4
TX: 0x199 = 2f7d200004ff30d0
TX: 0x169 = 6284793811dc312b
TX: 0x119 = ff1ff41183bd
TX: 0x109 = 00600080000000e7
⚠️  ERROR CODE (0x3FF): 40
TX: 0x199 = 2f7d200004ff4089
TX: 0x169 = 64e4794091dd4126
TX: 0x119 = ff1ff41184be
TX: 0x109 = 0080008000000007
TX: 0x159 = fbff4ffbffa70000
TX: 0x149 = 0026026aaa04af35
TX: 0x129 = 00000020a0d6
TX: 0x1A9 = 00000ca0e4
TX: 0x199 = 2f7d200004ff5044
TX: 0x169 = 67247a4c11df5108
TX: 0x119 = ff1ff41185bf
TX: 0x109 = 00a0008000000027
🎯 RADAR STATUS (0x300): State=9, Scan=0, Power=195
TX: 0x199 = 2f7d200004ff600e
TX: 0x169 = 6a847a5811e06188
TX: 0x119 = ff1ff41186c0
TX: 0x109 = 00c0008000000047
TX: 0x159 = fbff4f0bffb70000
TX: 0x149 = 0026026aaa04bf45
TX: 0x129 = 00000020b0e6
TX: 0x1A9 = 00000cb0f4
TX: 0x199 = 2f7d200004ff70c3
TX: 0x169 = 6cc47a6091e17163
TX: 0x119 = ff1ff41187c1
TX: 0x109 = 00e0008000000067
TX: 0x199 = 2f7d200004ff80bc
TX: 0x169 = 6f247b6891e281e0
TX: 0x119 = ff1ff41188c2
TX: 0x109 = 0000008000000087
TX: 0x159 = fbff4f1bffc70000
TX: 0x149 = 0026026aaa04cf55
TX: 0x129 = 00000020c0f6
TX: 0x1A9 = 00000cc004
TX: 0x199 = 2f7d200004ff9071
TX: 0x169 = 71647b7411e491c0
TX: 0x119 = ff1ff41189c3
TX: 0x109 = 00200080000000a7
⚠️  ERROR CODE (0x3FF): 48
TX: 0x199 = 2f7d200004ffa03b
TX: 0x169 = 74c47b7c11e5a13c
TX: 0x119 = ff1ff4118ac4
TX: 0x109 = 00400080000000c7
TX: 0x159 = fbff4f2bffd70000
TX: 0x149 = 0026026aaa04df65
TX: 0x129 = 00000020d006
TX: 0x1A9 = 00000cd014
TX: 0x209 = 00ff945213038000
TX: 0x219 = 00000000000090e1
TX: 0x17C = 0040042a54000000
TX: 0x199 = 2f7d200004ffb0f6
TX: 0x169 = 76047c8891e6b11c
TX: 0x119 = ff1ff4118bc5
TX: 0x109 = 00600080000000e7
CAN error: Could not read from serial device
CAN decode error: invalid literal for int() with base 10: 'F'
CAN decode error: invalid literal for int() with base 16: 't3108000'
CAN error: Could not read from serial device
TX: 0x199 = 2f7d200004ffc0af
TX: 0x169 = 79647c9091e7c198
TX: 0x119 = ff1ff4118cc6
TX: 0x109 = 0080008000000007
TX: 0x159 = fbff4f3bffe70000
TX: 0x149 = 0026026aaa04ef75
TX: 0x129 = 00000020e016
TX: 0x1A9 = 00000ce024
TX: 0x199 = 2f7d200004ffd062
TX: 0x169 = 7ba47c9891e8d1f3
TX: 0x119 = ff1ff4118dc7
TX: 0x109 = 00a0008000000027
TX: 0x199 = 2f7d200004ffe028
TX: 0x169 = 7e047da411eae1f5
TX: 0x119 = ff1ff4118ec8
TX: 0x109 = 00c0008000000047
TX: 0x159 = fbff4f4bfff70000
TX: 0x149 = 0026026aaa04ff85
TX: 0x129 = 00000020f026
TX: 0x1A9 = 00000cf034
⚠️  ERROR CODE (0x3FF): 72
TX: 0x199 = 2f7d200004fff0e5
TX: 0x169 = 80447db091ebf1d4
TX: 0x119 = ff1ff4118fc9
TX: 0x109 = 00e0008000000067
TX: 0x199 = 2f7d200004ff009a
TX: 0x169 = 83a47db891ec0150
TX: 0x119 = ff1ff41180ba
TX: 0x109 = 0000008000000087
TX: 0x159 = fbff4f5bff070000
TX: 0x149 = 0026026aaa040f95
TX: 0x129 = 000000200036
TX: 0x1A9 = 00000c0044
🎯 RADAR STATUS (0x300): State=12, Scan=20, Power=195
TX: 0x199 = 2f7d200004ff1057
TX: 0x169 = 85e47dc411ee1130
TX: 0x119 = ff1ff41181bb
TX: 0x109 = 00200080000000a7
TX: 0x199 = 2f7d200004ff201d
TX: 0x169 = 88447ecc11ef21ad
TX: 0x119 = ff1ff41182bc
TX: 0x109 = 00400080000000c7
TX: 0x159 = fbff4f6bff170000
TX: 0x149 = 0026026aaa041fa5
TX: 0x129 = 000000201046
TX: 0x1A9 = 00000c1054
TX: 0x199 = 2f7d200004ff30d0
TX: 0x169 = 8ba47ed891f031ad
TX: 0x119 = ff1ff41183bd
TX: 0x109 = 00600080000000e7
⚠️  ERROR CODE (0x3FF): 80
TX: 0x199 = 2f7d200004ff4089
TX: 0x169 = 8de47ee011f24189
TX: 0x119 = ff1ff41184be
TX: 0x109 = 0080008000000007
TX: 0x159 = fbff4f7bff270000
TX: 0x149 = 0026026aaa042fb5
TX: 0x129 = 000000202056
TX: 0x1A9 = 00000c2064
TX: 0x209 = 00ff945213038000
TX: 0x219 = 000000000000a0ab
TX: 0x17C = 0040042b56000000
TX: 0x199 = 2f7d200004ff5044
TX: 0x169 = 90447fec11f3510a
TX: 0x119 = ff1ff41185bf
TX: 0x109 = 00a0008000000027
CAN error: Could not read from serial device
TX: 0x199 = 2f7d200004ff600e
TX: 0x169 = 92a47ff491f46105
TX: 0x119 = ff1ff41186c0
TX: 0x109 = 00c0008000000047
TX: 0x159 = fbff4f8bff370000
TX: 0x149 = 0026026aaa043fc5
TX: 0x129 = 000000203066
TX: 0x1A9 = 00000c3074
CAN error: Could not read from serial device
CAN decode error: non-hexadecimal number found in fromhex() arg at position 15
CAN error: Could not read from serial device
TX: 0x199 = 2f7d200004ff70c3
TX: 0x169 = 95e47f0092f57166
TX: 0x119 = ff1ff41187c1
TX: 0x109 = 00e0008000000067
TX: 0x199 = 2f7d200004ff80bc
TX: 0x169 = 9844800812f78164
TX: 0x119 = ff1ff41188c2
TX: 0x109 = 0000008000000087
TX: 0x159 = fbff4f9bff470000
TX: 0x149 = 0026026aaa044fd5
TX: 0x129 = 000000204076
TX: 0x1A9 = 00000c4084
TX: 0x199 = 2f7d200004ff9071
TX: 0x169 = 9a84801492f89143
TX: 0x119 = ff1ff41189c3
TX: 0x109 = 00200080000000a7
TX: 0x2B9 = 1246313133313035
VIN transmission cycle: 6/7
⚠️  ERROR CODE (0x3FF): 104
TX: 0x199 = 2f7d200004ffa03b
TX: 0x169 = 9ce4801c92f9a1be
TX: 0x119 = ff1ff4118ac4
TX: 0x109 = 00400080000000c7
TX: 0x159 = fbff4fabff570000
TX: 0x149 = 0026026aaa045fe5
TX: 0x129 = 000000205086
TX: 0x1A9 = 00000c5094
TX: 0x199 = 2f7d200004ffb0f6
TX: 0x169 = 9f24812812fbb1a0
TX: 0x119 = ff1ff4118bc5
TX: 0x109 = 00600080000000e7
🎯 RADAR STATUS (0x300): State=12, Scan=44, Power=67
TX: 0x199 = 2f7d200004ffc0af
TX: 0x169 = a284813012fcc11c
TX: 0x119 = ff1ff4118cc6
TX: 0x109 = 0080008000000007
TX: 0x159 = fbff4fbbff670000
TX: 0x149 = 0026026aaa046ff5
TX: 0x129 = 000000206096
TX: 0x1A9 = 00000c60a4
TX: 0x199 = 2f7d200004ffd062
TX: 0x169 = a4e4813c92fdd11b
TX: 0x119 = ff1ff4118dc7
TX: 0x109 = 00a0008000000027
TX: 0x199 = 2f7d200004ffe028
TX: 0x169 = a724824492fee178
TX: 0x119 = ff1ff4118ec8
TX: 0x109 = 00c0008000000047
TX: 0x159 = fbff4fcbff770000
TX: 0x149 = 0026026aaa047f05
TX: 0x129 = 0000002070a6
TX: 0x1A9 = 00000c70b4
TX: 0x209 = 00ff945213038000
TX: 0x219 = 000000000000b066
TX: 0x17C = 0040042c58000000
TX: 0x199 = 2f7d200004fff0e5
TX: 0x169 = a964824c1200f255
TX: 0x119 = ff1ff4118fc9
TX: 0x109 = 00e0008000000067
⚠️  ERROR CODE (0x3FF): 112
TX: 0x199 = 2f7d200004ff009a
TX: 0x169 = acc48258120102d5
TX: 0x119 = ff1ff41180ba
TX: 0x109 = 0000008000000087
TX: 0x159 = fbff4fdbff870000
TX: 0x149 = 0026026aaa048f15
TX: 0x129 = 0000002080b6
TX: 0x1A9 = 00000c80c4
🎯 RADAR STATUS (0x300): State=8, Scan=52, Power=67
TX: 0x199 = 2f7d200004ff1057
TX: 0x169 = af4483681203127b
TX: 0x119 = ff1ff41181bb
TX: 0x109 = 00200080000000a7
CAN decode error: non-hexadecimal number found in fromhex() arg at position 15
CAN error: Could not read from serial device
TX: 0x199 = 2f7d200004ff201d
TX: 0x169 = b2848370120422d7
TX: 0x119 = ff1ff41182bc
TX: 0x109 = 00400080000000c7
TX: 0x159 = fbff4febff970000
TX: 0x149 = 0026026aaa049f25
TX: 0x129 = 0000002090c6
TX: 0x1A9 = 00000c90d4
TX: 0x199 = 2f7d200004ff30d0
TX: 0x169 = b4e4837c920532d6
TX: 0x119 = ff1ff41183bd
TX: 0x109 = 00600080000000e7
⚠️  ERROR CODE (0x3FF): 136
TX: 0x199 = 2f7d200004ff4089
TX: 0x169 = b724848492064233
TX: 0x119 = ff1ff41184be
TX: 0x109 = 0080008000000007
TX: 0x159 = fbff4ffbffa70000
TX: 0x149 = 0026026aaa04af35
TX: 0x129 = 00000020a0d6
TX: 0x1A9 = 00000ca0e4
TX: 0x199 = 2f7d200004ff5044
TX: 0x169 = b984848c1208522f
TX: 0x119 = ff1ff41185bf
TX: 0x109 = 00a0008000000027
🎯 RADAR STATUS (0x300): State=12, Scan=60, Power=131
TX: 0x199 = 2f7d200004ff600e
TX: 0x169 = bcc484989209620f
TX: 0x119 = ff1ff41186c0
TX: 0x109 = 00c0008000000047
TX: 0x159 = fbff4f0bffb70000
TX: 0x149 = 0026026aaa04bf45
TX: 0x129 = 00000020b0e6
TX: 0x1A9 = 00000cb0f4
TX: 0x199 = 2f7d200004ff70c3
TX: 0x169 = bf2485a0920a728c
TX: 0x119 = ff1ff41187c1
TX: 0x109 = 00e0008000000067
TX: 0x199 = 2f7d200004ff80bc
TX: 0x169 = c18485ac120c828c
TX: 0x119 = ff1ff41188c2
TX: 0x109 = 0000008000000087
TX: 0x159 = fbff4f1bffc70000
TX: 0x149 = 0026026aaa04cf55
TX: 0x129 = 00000020c0f6
TX: 0x1A9 = 00000cc004
TX: 0x209 = 00ff945213038000
TX: 0x219 = 000000000000c03f
TX: 0x17C = 0040042d5a000000
TX: 0x199 = 2f7d200004ff9071
⚠️  ERROR CODE (0x3FF): 144
TX: 0x169 = c4c485b4120d92e8
TX: 0x119 = ff1ff41189c3
TX: 0x109 = 00200080000000a7
TX: 0x199 = 2f7d200004ffa03b
TX: 0x169 = c62486c0920ea2e8
TX: 0x119 = ff1ff4118ac4
TX: 0x109 = 00400080000000c7
TX: 0x159 = fbff4f2bffd70000
TX: 0x149 = 0026026aaa04df65
TX: 0x129 = 00000020d006
TX: 0x1A9 = 00000cd014

⚠️  ACTIVATION INCOMPLETE

======================================================================
📊 DIAGNOSTIC SUMMARY
======================================================================
⏱️  Total Time: 5.0s
🔄 Init Messages (0x631): 0
📊 Status Messages (0x300): 57
📡 VIN Completion: 6/7
🎯 Valid Objects: 0
📈 Unique Scan Indices: 38
⚡ Max Power Level: 195
⚠️  Error Codes: 16
   0x3FF status: 1 unique / 1 total
   Top error codes: 172:1 (UNKNOWN)
      - 172: UNKNOWN (count 1) payloads: 33ac08

🔍 SPECIFIC ISSUES:
   ❌ No 0x631 initialization detected
      → Check radar power and CAN connections
   ❌ VIN transmission incomplete
      → Check 0x2B9 message transmission
   ❌ Plant mode not exited
      → Check radar position/EPAS configuration
   ❌ Scan index static
      → Try different radarPosition/radarEpasType values
   ❌ No valid objects detected
      → Check object detection logic

💡 RECOMMENDATIONS:
   1. Try different radarPosition values (0, 1, 2)
   2. Try different radarEpasType values (0, 1)
   3. Check physical radar mounting and connections
   4. Verify CAN bus termination
   5. Try longer activation duration
🛑 Tesla Radar Protocol Stopped
CAN error: Could not read from serial device

CAN interface closed
