Opening SLcan interface /dev/cu.usbmodem2057326E55481 at 500000bps
🚀 TESLA RADAR ACTIVATOR - COMPLETE IMPLEMENTATION
======================================================================
Based on working Panda safety layer implementation
Features:
  ✅ Complete Tesla protocol with proper timing
  ✅ 13 Tesla messages at correct frequencies
  ✅ Proper VIN transmission (3-part protocol)
  ✅ CRC/checksum validation
  ✅ 0x631 initialization detection
  ✅ Enhanced radar monitoring
  ✅ OpenPilot-style object validation

🎯 Configuration:
   VIN: 5YJSB7E43GF113105
   Position: 1
   EPAS Type: 0
   Speed: 30 km/h
   Duration: 5s

👁️  Starting enhanced radar monitoring...
🔍 MONITORING FOR RADAR ACTIVATION...
Looking for:
  1. 0x631 radar initialization signal
  2. 0x300 radar status confirmation
  3. VIN transmission completion (7 cycles)
  4. Plant mode → Active transition
  5. Dynamic scan index changes
  6. Valid object detection

🚀 Tesla Radar Protocol Started
   VIN: 5YJSB7E43GF113105
   Position: 1, EPAS: 0
   Speed: 30 km/h
RX: 0x300 = 374883141e003080
CAN decode error: non-hexadecimal number found in fromhex() arg at position 7
TX: 0x199 = 2f7d200004ff009a
TX: 0x169 = 000000980000000e
🎯 RADAR STATUS (0x300): State=8, Scan=92, Power=67
TX: 0x119 = ff1ff41180ba
CAN decode error: non-hexadecimal number found in fromhex() arg at position 15
TX: 0x109 = 0000008000000087
RX: 0x300 = ffffffb200000000
TX: 0x159 = fbff4f5bff070000
TX: 0x149 = 0026026aaa040f95
TX: 0x129 = 000000200036
TX: 0x1A9 = 00000c0044
CAN decode error: non-hexadecimal number found in fromhex() arg at position 15
TX: 0x209 = 00ff945213038000
TX: 0x219 = 000000000000000a
TX: 0x17C = 0040020000000000
TX: 0x2B9 = 100000000035594a
TX: 0x2A9 = 4a16434110000210
TX: 0x2D9 = 8040830000000000
CAN decode error: non-hexadecimal number found in fromhex() arg at position 15
CAN decode error: non-hexadecimal number found in fromhex() arg at position 15
CAN decode error: non-hexadecimal number found in fromhex() arg at position 7
CAN decode error: non-hexadecimal number found in fromhex() arg at position 15
CAN decode error: non-hexadecimal number found in fromhex() arg at position 15
CAN decode error: non-hexadecimal number found in fromhex() arg at position 15
CAN decode error: non-hexadecimal number found in fromhex() arg at position 4
CAN decode error: non-hexadecimal number found in fromhex() arg at position 15
RX: 0x300 = 095c43131d003000
CAN decode error: non-hexadecimal number found in fromhex() arg at position 15
CAN decode error: non-hexadecimal number found in fromhex() arg at position 15
CAN decode error: non-hexadecimal number found in fromhex() arg at position 15
CAN decode error: non-hexadecimal number found in fromhex() arg at position 15
CAN decode error: non-hexadecimal number found in fromhex() arg at position 7
CAN decode error: non-hexadecimal number found in fromhex() arg at position 15
CAN decode error: non-hexadecimal number found in fromhex() arg at position 15
CAN decode error: non-hexadecimal number found in fromhex() arg at position 15
CAN decode error: non-hexadecimal number found in fromhex() arg at position 15
CAN decode error: non-hexadecimal number found in fromhex() arg at position 15
CAN decode error: non-hexadecimal number found in fromhex() arg at position 15
CAN decode error: non-hexadecimal number found in fromhex() arg at position 15
CAN decode error: non-hexadecimal number found in fromhex() arg at position 15
CAN decode error: non-hexadecimal number found in fromhex() arg at position 7
CAN decode error: non-hexadecimal number found in fromhex() arg at position 7
CAN decode error: non-hexadecimal number found in fromhex() arg at position 15
CAN decode error: non-hexadecimal number found in fromhex() arg at position 15
TX: 0x199 = 2f7d200004ff1057
TX: 0x169 = 034000a000001069
TX: 0x119 = ff1ff41181bb
TX: 0x109 = 00200080000000a7
CAN decode error: non-hexadecimal number found in fromhex() arg at position 15
CAN decode error: non-hexadecimal number found in fromhex() arg at position 15
CAN decode error: non-hexadecimal number found in fromhex() arg at position 15
CAN error: Could not read from serial device
TX: 0x199 = 2f7d200004ff201d
TX: 0x169 = 06a000ac000020e8
TX: 0x119 = ff1ff41182bc
TX: 0x109 = 00400080000000c7
TX: 0x159 = fbff4f6bff170000
TX: 0x149 = 0026026aaa041fa5
TX: 0x129 = 000000201046
TX: 0x1A9 = 00000c1054
TX: 0x199 = 2f7d200004ff30d0
TX: 0x169 = 09e000b800003047
TX: 0x119 = ff1ff41183bd
TX: 0x109 = 00600080000000e7
⚠️  ERROR CODE (0x3FF): 168
TX: 0x199 = 2f7d200004ff4089
TX: 0x169 = 0b2001c0000040a2
TX: 0x119 = ff1ff41184be
TX: 0x109 = 0080008000000007
TX: 0x159 = fbff4f7bff270000
TX: 0x149 = 0026026aaa042fb5
TX: 0x129 = 000000202056
TX: 0x1A9 = 00000c2064
TX: 0x199 = 2f7d200004ff5044
TX: 0x169 = 0f8001cc00005022
TX: 0x119 = ff1ff41185bf
TX: 0x109 = 00a0008000000027
🎯 RADAR STATUS (0x300): State=11, Scan=92, Power=67
TX: 0x199 = 2f7d200004ff600e
TX: 0x169 = 11c001d800006080
TX: 0x119 = ff1ff41186c0
TX: 0x109 = 00c0008000000047
TX: 0x159 = fbff4f8bff370000
TX: 0x149 = 0026026aaa043fc5
TX: 0x129 = 000000203066
TX: 0x1A9 = 00000c3074
TX: 0x199 = 2f7d200004ff70c3
TX: 0x169 = 140002e0000070dc
TX: 0x119 = ff1ff41187c1
TX: 0x109 = 00e0008000000067
TX: 0x199 = 2f7d200004ff80bc
TX: 0x169 = 174002ec0000803b
TX: 0x119 = ff1ff41188c2
TX: 0x109 = 0000008000000087
TX: 0x159 = fbff4f9bff470000
TX: 0x149 = 0026026aaa044fd5
TX: 0x129 = 000000204076
TX: 0x1A9 = 00000c4084
⚠️  ERROR CODE (0x3FF): 176
TX: 0x199 = 2f7d200004ff9071
TX: 0x169 = 19a002f8000090b9
TX: 0x119 = ff1ff41189c3
TX: 0x109 = 00200080000000a7
TX: 0x199 = 2f7d200004ffa03b
TX: 0x169 = 1de002040100a01a
TX: 0x119 = ff1ff4118ac4
TX: 0x109 = 00400080000000c7
TX: 0x159 = fbff4fabff570000
TX: 0x149 = 0026026aaa045fe5
TX: 0x129 = 000000205086
TX: 0x1A9 = 00000c5094
TX: 0x209 = 00ff945213038000
TX: 0x219 = 00000000000010c7
TX: 0x17C = 0040020102000000
TX: 0x199 = 2f7d200004ffb0f6
TX: 0x169 = 2040030c0100b096
TX: 0x119 = ff1ff4118bc5
TX: 0x109 = 00600080000000e7
TX: 0x199 = 2f7d200004ffc0af
TX: 0x169 = 228003180100c0f4
TX: 0x119 = ff1ff4118cc6
TX: 0x109 = 0080008000000007
TX: 0x159 = fbff4fbbff670000
TX: 0x149 = 0026026aaa046ff5
TX: 0x129 = 000000206096
TX: 0x1A9 = 00000c60a4
CAN error: Could not read from serial device
CAN error: Could not read from serial device
CAN decode error: non-hexadecimal number found in fromhex() arg at position 15
CAN decode error: invalid literal for int() with base 10: 'A'
CAN error: Could not read from serial device
CAN decode error: non-hexadecimal number found in fromhex() arg at position 15
CAN error: Could not read from serial device
CAN error: Could not read from serial device
CAN decode error: non-hexadecimal number found in fromhex() arg at position 15
TX: 0x199 = 2f7d200004ffd062
TX: 0x169 = 25c003240100d053
TX: 0x119 = ff1ff4118dc7
TX: 0x109 = 00a0008000000027
CAN error: Could not read from serial device
TX: 0x199 = 2f7d200004ffe028
TX: 0x169 = 280004300100e0b3
TX: 0x119 = ff1ff4118ec8
TX: 0x109 = 00c0008000000047
TX: 0x159 = fbff4fcbff770000
TX: 0x149 = 0026026aaa047f05
TX: 0x129 = 0000002070a6
TX: 0x1A9 = 00000c70b4
TX: 0x199 = 2f7d200004fff0e5
TX: 0x169 = 2b6004380100f02e
TX: 0x119 = ff1ff4118fc9
TX: 0x109 = 00e0008000000067
⚠️  ERROR CODE (0x3FF): 200
TX: 0x199 = 2f7d200004ff009a
TX: 0x169 = 2ea004440100008d
TX: 0x119 = ff1ff41180ba
TX: 0x109 = 0000008000000087
TX: 0x159 = fbff4fdbff870000
TX: 0x149 = 0026026aaa048f15
TX: 0x129 = 0000002080b6
TX: 0x1A9 = 00000c80c4
🎯 RADAR STATUS (0x300): State=0, Scan=92, Power=67
TX: 0x199 = 2f7d200004ff1057
TX: 0x169 = 31e004508101106d
TX: 0x119 = ff1ff41181bb
TX: 0x109 = 00200080000000a7
TX: 0x199 = 2f7d200004ff201d
TX: 0x169 = 34400558810220ea
TX: 0x119 = ff1ff41182bc
TX: 0x109 = 00400080000000c7
TX: 0x159 = fbff4febff970000
TX: 0x149 = 0026026aaa049f25
TX: 0x129 = 0000002090c6
TX: 0x1A9 = 00000c90d4
TX: 0x199 = 2f7d200004ff30d0
TX: 0x169 = 3680056481033049
TX: 0x119 = ff1ff41183bd
TX: 0x109 = 00600080000000e7
TX: 0x199 = 2f7d200004ff4089
TX: 0x169 = 39c005700105402a
TX: 0x119 = ff1ff41184be
TX: 0x109 = 0080008000000007
TX: 0x159 = fbff4ffbffa70000
TX: 0x149 = 0026026aaa04af35
TX: 0x129 = 00000020a0d6
TX: 0x1A9 = 00000ca0e4
TX: 0x209 = 00ff945213038000
TX: 0x219 = 000000000000208d
TX: 0x17C = 0040040204000000
⚠️  ERROR CODE (0x3FF): 208
TX: 0x199 = 2f7d200004ff5044
TX: 0x169 = 3c20067c010650ab
TX: 0x119 = ff1ff41185bf
TX: 0x109 = 00a0008000000027
TX: 0x199 = 2f7d200004ff600e
TX: 0x169 = 3f60068401076007
TX: 0x119 = ff1ff41186c0
TX: 0x109 = 00c0008000000047
TX: 0x159 = fbff4f0bffb70000
TX: 0x149 = 0026026aaa04bf45
TX: 0x129 = 00000020b0e6
TX: 0x1A9 = 00000cb0f4
TX: 0x199 = 2f7d200004ff70c3
TX: 0x169 = 42a00690810870e7
TX: 0x119 = ff1ff41187c1
TX: 0x109 = 00e0008000000067
TX: 0x199 = 2f7d200004ff80bc
TX: 0x169 = 4500079c81098068
TX: 0x119 = ff1ff41188c2
TX: 0x109 = 0000008000000087
TX: 0x159 = fbff4f1bffc70000
TX: 0x149 = 0026026aaa04cf55
TX: 0x129 = 00000020c0f6
TX: 0x1A9 = 00000cc004
TX: 0x199 = 2f7d200004ff9071
TX: 0x169 = 484007a8010b9049
TX: 0x119 = ff1ff41189c3
TX: 0x109 = 00200080000000a7
TX: 0x2B9 = 1153423745343347
CAN error: Could not read from serial device
TX: 0x199 = 2f7d200004ffa03b
TX: 0x169 = 4ba007b4010ca0c9
TX: 0x119 = ff1ff4118ac4
TX: 0x109 = 00400080000000c7
TX: 0x159 = fbff4f2bffd70000
TX: 0x149 = 0026026aaa04df65
TX: 0x129 = 00000020d006
TX: 0x1A9 = 00000cd014
TX: 0x199 = 2f7d200004ffb0f6
TX: 0x169 = 4ee007c0810db0a9
TX: 0x119 = ff1ff4118bc5
TX: 0x109 = 00600080000000e7
TX: 0x199 = 2f7d200004ffc0af
TX: 0x169 = 512008c8810ec006
TX: 0x119 = ff1ff4118cc6
TX: 0x109 = 0080008000000007
TX: 0x159 = fbff4f3bffe70000
TX: 0x149 = 0026026aaa04ef75
TX: 0x129 = 00000020e016
TX: 0x1A9 = 00000ce024
⚠️  ERROR CODE (0x3FF): 232
TX: 0x199 = 2f7d200004ffd062
TX: 0x169 = 548008d40110d007
TX: 0x119 = ff1ff4118dc7
TX: 0x109 = 00a0008000000027
TX: 0x199 = 2f7d200004ffe028
TX: 0x169 = 57c008e00111e067
TX: 0x119 = ff1ff4118ec8
TX: 0x109 = 00c0008000000047
TX: 0x159 = fbff4f4bfff70000
TX: 0x149 = 0026026aaa04ff85
TX: 0x129 = 00000020f026
TX: 0x1A9 = 00000cf034
TX: 0x209 = 00ff945213038000
TX: 0x219 = 0000000000003040
TX: 0x17C = 0040040306000000
TX: 0x199 = 2f7d200004fff0e5
TX: 0x169 = 5a0009e80112f0c4
TX: 0x119 = ff1ff4118fc9
TX: 0x109 = 00e0008000000067
🎯 RADAR STATUS (0x300): State=9, Scan=36, Power=2
TX: 0x199 = 2f7d200004ff009a
TX: 0x169 = 5c6009f4811300c3
TX: 0x119 = ff1ff41180ba
TX: 0x109 = 0000008000000087
TX: 0x159 = fbff4f5bff070000
TX: 0x149 = 0026026aaa040f95
TX: 0x129 = 000000200036
TX: 0x1A9 = 00000c0044
TX: 0x199 = 2f7d200004ff1057
TX: 0x169 = 5fa0090082141024
TX: 0x119 = ff1ff41181bb
TX: 0x109 = 00200080000000a7
TX: 0x199 = 2f7d200004ff201d
TX: 0x169 = 62e0090882152080
TX: 0x119 = ff1ff41182bc
TX: 0x109 = 00400080000000c7
TX: 0x159 = fbff4f6bff170000
TX: 0x149 = 0026026aaa041fa5
TX: 0x129 = 000000201046
TX: 0x1A9 = 00000c1054
⚠️  ERROR CODE (0x3FF): 240
TX: 0x199 = 2f7d200004ff30d0
TX: 0x169 = 65200a14821630e1
TX: 0x119 = ff1ff41183bd
TX: 0x109 = 00600080000000e7
TX: 0x199 = 2f7d200004ff4089
TX: 0x169 = 68800a1c021840de
TX: 0x119 = ff1ff41184be
TX: 0x109 = 0080008000000007
TX: 0x159 = fbff4f7bff270000
TX: 0x149 = 0026026aaa042fb5
TX: 0x129 = 000000202056
TX: 0x1A9 = 00000c2064
CAN error: Could not read from serial device
RX: 0x300 = c8f881
CAN error: Could not read from serial device
CAN decode error: non-hexadecimal number found in fromhex() arg at position 15
CAN error: Could not read from serial device
CAN error: Could not read from serial device
TX: 0x199 = 2f7d200004ff5044
TX: 0x169 = 6ac00a280219503d
TX: 0x119 = ff1ff41185bf
TX: 0x109 = 00a0008000000027
TX: 0x199 = 2f7d200004ff600e
TX: 0x169 = 6d000b34021a609e
TX: 0x119 = ff1ff41186c0
TX: 0x109 = 00c0008000000047
TX: 0x159 = fbff4f8bff370000
TX: 0x149 = 0026026aaa043fc5
TX: 0x129 = 000000203066
TX: 0x1A9 = 00000c3074
TX: 0x199 = 2f7d200004ff70c3
TX: 0x169 = 70400b3c821b707a
TX: 0x119 = ff1ff41187c1
TX: 0x109 = 00e0008000000067
⚠️  ERROR CODE (0x3FF): 8
TX: 0x199 = 2f7d200004ff80bc
TX: 0x169 = 73a00b48821c80fa
TX: 0x119 = ff1ff41188c2
TX: 0x109 = 0000008000000087
TX: 0x159 = fbff4f9bff470000
TX: 0x149 = 0026026aaa044fd5
TX: 0x129 = 000000204076
TX: 0x1A9 = 00000c4084
TX: 0x209 = 00ff945213038000
TX: 0x219 = 0000000000004019
TX: 0x17C = 0040040408000000
TX: 0x199 = 2f7d200004ff9071
TX: 0x169 = 76e00b54021e90db
TX: 0x119 = ff1ff41189c3
TX: 0x109 = 00200080000000a7
TX: 0x199 = 2f7d200004ffa03b
TX: 0x169 = 79400c60021fa05c
TX: 0x119 = ff1ff4118ac4
TX: 0x109 = 00400080000000c7
TX: 0x159 = fbff4fabff570000
TX: 0x149 = 0026026aaa045fe5
TX: 0x129 = 000000205086
TX: 0x1A9 = 00000c5094
🎯 RADAR STATUS (0x300): State=6, Scan=192, Power=193
TX: 0x199 = 2f7d200004ffb0f6
TX: 0x169 = 7c800c680220b0b8
TX: 0x119 = ff1ff4118bc5
TX: 0x109 = 00600080000000e7
TX: 0x199 = 2f7d200004ffc0af
TX: 0x169 = 7fc00c748221c098
TX: 0x119 = ff1ff4118cc6
TX: 0x109 = 0080008000000007
TX: 0x159 = fbff4fbbff670000
TX: 0x149 = 0026026aaa046ff5
TX: 0x129 = 000000206096
TX: 0x1A9 = 00000c60a4
TX: 0x199 = 2f7d200004ffd062
TX: 0x169 = 82200d808222d019
TX: 0x119 = ff1ff4118dc7
TX: 0x109 = 00a0008000000027
⚠️  ERROR CODE (0x3FF): 16
TX: 0x199 = 2f7d200004ffe028
TX: 0x169 = 85600d8c0224e0fa
TX: 0x119 = ff1ff4118ec8
TX: 0x109 = 00c0008000000047
TX: 0x159 = fbff4fcbff770000
TX: 0x149 = 0026026aaa047f05
TX: 0x129 = 0000002070a6
TX: 0x1A9 = 00000c70b4
TX: 0x199 = 2f7d200004fff0e5
TX: 0x169 = 87a00d940225f055
TX: 0x119 = ff1ff4118fc9
TX: 0x109 = 00e0008000000067
TX: 0x199 = 2f7d200004ff009a
TX: 0x169 = 8a000ea0022600d6
TX: 0x119 = ff1ff41180ba
TX: 0x109 = 0000008000000087
TX: 0x159 = fbff4fdbff870000
TX: 0x149 = 0026026aaa048f15
TX: 0x129 = 0000002080b6
TX: 0x1A9 = 00000c80c4
TX: 0x199 = 2f7d200004ff1057
TX: 0x169 = 8d400eac822710b6
TX: 0x119 = ff1ff41181bb
TX: 0x109 = 00200080000000a7
🎯 RADAR STATUS (0x300): State=2, Scan=132, Power=1
CAN error: Could not read from serial device
TX: 0x199 = 2f7d200004ff201d
TX: 0x169 = 90800eb482282012
TX: 0x119 = ff1ff41182bc
TX: 0x109 = 00400080000000c7
TX: 0x159 = fbff4febff970000
TX: 0x149 = 0026026aaa049f25
TX: 0x129 = 0000002090c6
TX: 0x1A9 = 00000c90d4
TX: 0x209 = 00ff945213038000
TX: 0x219 = 00000000000050d4
TX: 0x17C = 004004050a000000
TX: 0x2B9 = 1246313133313035
VIN transmission cycle: 1/7
TX: 0x199 = 2f7d200004ff30d0
TX: 0x169 = 93c00ec082293072
TX: 0x119 = ff1ff41183bd
TX: 0x109 = 00600080000000e7
TX: 0x199 = 2f7d200004ff4089
TX: 0x169 = 95200fcc022b4073
TX: 0x119 = ff1ff41184be
TX: 0x109 = 0080008000000007
TX: 0x159 = fbff4ffbffa70000
TX: 0x149 = 0026026aaa04af35
TX: 0x129 = 00000020a0d6
TX: 0x1A9 = 00000ca0e4
⚠️  ERROR CODE (0x3FF): 40
TX: 0x199 = 2f7d200004ff5044
TX: 0x169 = 98600fd4022c50cf
TX: 0x119 = ff1ff41185bf
TX: 0x109 = 00a0008000000027
TX: 0x199 = 2f7d200004ff600e
TX: 0x169 = 9ba00fe0022d602f
TX: 0x119 = ff1ff41186c0
TX: 0x109 = 00c0008000000047
TX: 0x159 = fbff4f0bffb70000
TX: 0x149 = 0026026aaa04bf45
TX: 0x129 = 00000020b0e6
TX: 0x1A9 = 00000cb0f4
🎯 RADAR STATUS (0x300): State=15, Scan=84, Power=129
TX: 0x199 = 2f7d200004ff70c3
TX: 0x169 = 9ee00fec822e700f
TX: 0x119 = ff1ff41187c1
TX: 0x109 = 00e0008000000067
TX: 0x199 = 2f7d200004ff80bc
TX: 0x169 = a14010f4822f808c
TX: 0x119 = ff1ff41188c2
TX: 0x109 = 0000008000000087
TX: 0x159 = fbff4f1bffc70000
TX: 0x149 = 0026026aaa04cf55
TX: 0x129 = 00000020c0f6
TX: 0x1A9 = 00000cc004
TX: 0x199 = 2f7d200004ff9071
TX: 0x169 = a48010000331906e
TX: 0x119 = ff1ff41189c3
TX: 0x109 = 00200080000000a7
⚠️  ERROR CODE (0x3FF): 48
TX: 0x199 = 2f7d200004ffa03b
TX: 0x169 = a6c0100c0332a0cd
TX: 0x119 = ff1ff4118ac4
TX: 0x109 = 00400080000000c7
TX: 0x159 = fbff4f2bffd70000
TX: 0x149 = 0026026aaa04df65
TX: 0x129 = 00000020d006
TX: 0x1A9 = 00000cd014
TX: 0x199 = 2f7d200004ffb0f6
TX: 0x169 = a92011140333b04a
TX: 0x119 = ff1ff4118bc5
TX: 0x109 = 00600080000000e7
TX: 0x199 = 2f7d200004ffc0af
TX: 0x169 = ac6011200334c0aa
TX: 0x119 = ff1ff4118cc6
TX: 0x109 = 0080008000000007
TX: 0x159 = fbff4f3bffe70000
TX: 0x149 = 0026026aaa04ef75
TX: 0x129 = 00000020e016
TX: 0x1A9 = 00000ce024
TX: 0x209 = 00ff945213038000
TX: 0x219 = 000000000000609e
TX: 0x17C = 004004060c000000
RX: 0x300 = 322841a143003080
CAN decode error: non-hexadecimal number found in fromhex() arg at position 7
CAN error: Could not read from serial device
CAN decode error: non-hexadecimal number found in fromhex() arg at position 15
CAN error: Could not read from serial device
CAN error: Could not read from serial device
CAN decode error: non-hexadecimal number found in fromhex() arg at position 15
CAN error: Could not read from serial device
CAN error: Could not read from serial device
CAN decode error: non-hexadecimal number found in fromhex() arg at position 15
TX: 0x199 = 2f7d200004ffd062
TX: 0x169 = afa011288335d086
CAN decode error: non-hexadecimal number found in fromhex() arg at position 15
TX: 0x119 = ff1ff4118dc7
TX: 0x109 = 00a0008000000027
CAN decode error: non-hexadecimal number found in fromhex() arg at position 15
CAN error: Could not read from serial device
TX: 0x199 = 2f7d200004ffe028
TX: 0x169 = b1e011348336e0e5
TX: 0x119 = ff1ff4118ec8
TX: 0x109 = 00c0008000000047
TX: 0x159 = fbff4f4bfff70000
TX: 0x149 = 0026026aaa04ff85
TX: 0x129 = 00000020f026
TX: 0x1A9 = 00000cf034
TX: 0x199 = 2f7d200004fff0e5
TX: 0x169 = b44012408337f066
TX: 0x119 = ff1ff4118fc9
TX: 0x109 = 00e0008000000067
⚠️  ERROR CODE (0x3FF): 72
TX: 0x199 = 2f7d200004ff009a
TX: 0x169 = b880124c03390048
TX: 0x119 = ff1ff41180ba
TX: 0x109 = 0000008000000087
TX: 0x159 = fbff4f5bff070000
TX: 0x149 = 0026026aaa040f95
TX: 0x129 = 000000200036
TX: 0x1A9 = 00000c0044
TX: 0x199 = 2f7d200004ff1057
TX: 0x169 = bae01258033a10c7
TX: 0x119 = ff1ff41181bb
TX: 0x109 = 00200080000000a7
TX: 0x199 = 2f7d200004ff201d
TX: 0x169 = be201360833b20a5
TX: 0x119 = ff1ff41182bc
TX: 0x109 = 00400080000000c7
TX: 0x159 = fbff4f6bff170000
TX: 0x149 = 0026026aaa041fa5
TX: 0x129 = 000000201046
TX: 0x1A9 = 00000c1054
🎯 RADAR STATUS (0x300): State=3, Scan=244, Power=64
TX: 0x199 = 2f7d200004ff30d0
TX: 0x169 = c060136c833c3004
TX: 0x119 = ff1ff41183bd
TX: 0x109 = 00600080000000e7
TX: 0x199 = 2f7d200004ff4089
TX: 0x169 = c3c01378033e4005
TX: 0x119 = ff1ff41184be
TX: 0x109 = 0080008000000007
TX: 0x159 = fbff4f7bff270000
TX: 0x149 = 0026026aaa042fb5
TX: 0x129 = 000000202056
TX: 0x1A9 = 00000c2064
TX: 0x199 = 2f7d200004ff5044
TX: 0x169 = c6001480033f5062
TX: 0x119 = ff1ff41185bf
TX: 0x109 = 00a0008000000027
⚠️  ERROR CODE (0x3FF): 80
TX: 0x199 = 2f7d200004ff600e
TX: 0x169 = c940148c034060c2
TX: 0x119 = ff1ff41186c0
TX: 0x109 = 00c0008000000047
TX: 0x159 = fbff4f8bff370000
TX: 0x149 = 0026026aaa043fc5
TX: 0x129 = 000000203066
TX: 0x1A9 = 00000c3074
TX: 0x209 = 00ff945213038000
TX: 0x219 = 0000000000007053
TX: 0x17C = 004004070e000000
TX: 0x199 = 2f7d200004ff70c3
TX: 0x169 = cca01498834170c2
TX: 0x119 = ff1ff41187c1
TX: 0x109 = 00e0008000000067
CAN error: Could not read from serial device
CAN decode error: non-hexadecimal number found in fromhex() arg at position 15
CAN error: Could not read from serial device
CAN decode error: non-hexadecimal number found in fromhex() arg at position 15
CAN error: Could not read from serial device
CAN error: Could not read from serial device
TX: 0x199 = 2f7d200004ff80bc
TX: 0x169 = cfe014a483428022
CAN decode error: non-hexadecimal number found in fromhex() arg at position 15
TX: 0x119 = ff1ff41188c2
TX: 0x109 = 0000008000000087
TX: 0x159 = fbff4f9bff470000
TX: 0x149 = 0026026aaa044fd5
TX: 0x129 = 000000204076
TX: 0x1A9 = 00000c4084
CAN decode error: invalid literal for int() with base 16: 't31'
CAN error: Could not read from serial device
TX: 0x199 = 2f7d200004ff9071
TX: 0x169 = d24015ac03449020
TX: 0x119 = ff1ff41189c3
TX: 0x109 = 00200080000000a7
TX: 0x199 = 2f7d200004ffa03b
TX: 0x169 = d58015b80345a080
TX: 0x119 = ff1ff4118ac4
TX: 0x109 = 00400080000000c7
TX: 0x159 = fbff4fabff570000
TX: 0x149 = 0026026aaa045fe5
TX: 0x129 = 000000205086
TX: 0x1A9 = 00000c5094
⚠️  ERROR CODE (0x3FF): 104
TX: 0x199 = 2f7d200004ffb0f6
TX: 0x169 = d7c015c40346b0df
TX: 0x119 = ff1ff4118bc5
TX: 0x109 = 00600080000000e7
TX: 0x2B9 = 100000000035594a
TX: 0x199 = 2f7d200004ffc0af
TX: 0x169 = db2016d08347c0e1
TX: 0x119 = ff1ff4118cc6
TX: 0x109 = 0080008000000007
TX: 0x159 = fbff4fbbff670000
TX: 0x149 = 0026026aaa046ff5
TX: 0x129 = 000000206096
TX: 0x1A9 = 00000c60a4
TX: 0x199 = 2f7d200004ffd062
TX: 0x169 = dd6016d88348d03c
TX: 0x119 = ff1ff4118dc7
TX: 0x109 = 00a0008000000027
🎯 RADAR STATUS (0x300): State=15, Scan=152, Power=0
TX: 0x199 = 2f7d200004ffe028
TX: 0x169 = e0a016e4034ae01d
TX: 0x119 = ff1ff4118ec8
TX: 0x109 = 00c0008000000047
TX: 0x159 = fbff4fcbff770000
TX: 0x149 = 0026026aaa047f05
TX: 0x129 = 0000002070a6
TX: 0x1A9 = 00000c70b4
TX: 0x199 = 2f7d200004fff0e5
TX: 0x169 = e30017f0034bf09e
TX: 0x119 = ff1ff4118fc9
TX: 0x109 = 00e0008000000067
TX: 0x199 = 2f7d200004ff009a
TX: 0x169 = e64017fc834c007e
TX: 0x119 = ff1ff41180ba
TX: 0x109 = 0000008000000087
TX: 0x159 = fbff4fdbff870000
TX: 0x149 = 0026026aaa048f15
TX: 0x129 = 0000002080b6
TX: 0x1A9 = 00000c80c4
TX: 0x209 = 00ff945213038000
TX: 0x219 = 000000000000802c
TX: 0x17C = 0040040810000000
⚠️  ERROR CODE (0x3FF): 112
TX: 0x199 = 2f7d200004ff1057
TX: 0x169 = e9801704844d10db
TX: 0x119 = ff1ff41181bb
TX: 0x109 = 00200080000000a7
TX: 0x199 = 2f7d200004ff201d
TX: 0x169 = ece01710844e205b
TX: 0x119 = ff1ff41182bc
TX: 0x109 = 00400080000000c7
TX: 0x159 = fbff4febff970000
TX: 0x149 = 0026026aaa049f25
TX: 0x129 = 0000002090c6
TX: 0x1A9 = 00000c90d4
CAN decode error: non-hexadecimal number found in fromhex() arg at position 11
CAN error: Could not read from serial device
TX: 0x199 = 2f7d200004ff30d0
TX: 0x169 = ef20181c0450303d
TX: 0x119 = ff1ff41183bd
TX: 0x109 = 00600080000000e7
TX: 0x199 = 2f7d200004ff4089
TX: 0x169 = f28018288451403d
TX: 0x119 = ff1ff41184be
TX: 0x109 = 0080008000000007
TX: 0x159 = fbff4ffbffa70000
TX: 0x149 = 0026026aaa04af35
TX: 0x129 = 00000020a0d6
TX: 0x1A9 = 00000ca0e4
TX: 0x199 = 2f7d200004ff5044
TX: 0x169 = f5c0183084525099
TX: 0x119 = ff1ff41185bf
TX: 0x109 = 00a0008000000027
⚠️  ERROR CODE (0x3FF): 136
TX: 0x199 = 2f7d200004ff600e
TX: 0x169 = f800193c845360fa
TX: 0x119 = ff1ff41186c0
TX: 0x109 = 00c0008000000047
TX: 0x159 = fbff4f0bffb70000
TX: 0x149 = 0026026aaa04bf45
TX: 0x129 = 00000020b0e6
TX: 0x1A9 = 00000cb0f4
TX: 0x199 = 2f7d200004ff70c3
TX: 0x169 = fa601948045570fa
TX: 0x119 = ff1ff41187c1
TX: 0x109 = 00e0008000000067
TX: 0x199 = 2f7d200004ff80bc
TX: 0x169 = fda0195004568056
TX: 0x119 = ff1ff41188c2
TX: 0x109 = 0000008000000087
TX: 0x159 = fbff4f1bffc70000
TX: 0x149 = 0026026aaa04cf55
TX: 0x129 = 00000020c0f6
TX: 0x1A9 = 00000cc004
🎯 RADAR STATUS (0x300): State=15, Scan=156, Power=0
TX: 0x199 = 2f7d200004ff9071
TX: 0x169 = 00011a5c84579058
TX: 0x119 = ff1ff41189c3
TX: 0x109 = 00200080000000a7
TX: 0x199 = 2f7d200004ffa03b
TX: 0x169 = 03411a688458a0b8
TX: 0x119 = ff1ff4118ac4
TX: 0x109 = 00400080000000c7
TX: 0x159 = fbff4f2bffd70000
TX: 0x149 = 0026026aaa04df65
TX: 0x129 = 00000020d006
TX: 0x1A9 = 00000cd014
TX: 0x209 = 00ff945213038000
TX: 0x219 = 00000000000090e1
TX: 0x17C = 0040040912000000
TX: 0x199 = 2f7d200004ffb0f6
TX: 0x169 = 06811a74045ab099
TX: 0x119 = ff1ff4118bc5
TX: 0x109 = 00600080000000e7
CAN decode error: non-hexadecimal number found in fromhex() arg at position 15
CAN error: Could not read from serial device
⚠️  ERROR CODE (0x3FF): 144
TX: 0x199 = 2f7d200004ffc0af
TX: 0x169 = 09e11a80045bc019
TX: 0x119 = ff1ff4118cc6
TX: 0x109 = 0080008000000007
TX: 0x159 = fbff4f3bffe70000
TX: 0x149 = 0026026aaa04ef75
TX: 0x129 = 00000020e016
TX: 0x1A9 = 00000ce024
TX: 0x199 = 2f7d200004ffd062
TX: 0x169 = 0c211b8c845cd0fa
TX: 0x119 = ff1ff4118dc7
TX: 0x109 = 00a0008000000027
🎯 RADAR STATUS (0x300): State=2, Scan=168, Power=0
TX: 0x199 = 2f7d200004ffe028
TX: 0x169 = 0f811b94845de076
TX: 0x119 = ff1ff4118ec8
TX: 0x109 = 00c0008000000047
TX: 0x159 = fbff4f4bfff70000
TX: 0x149 = 0026026aaa04ff85
TX: 0x129 = 00000020f026
TX: 0x1A9 = 00000cf034
TX: 0x199 = 2f7d200004fff0e5
TX: 0x169 = 12c11ba0045ff057
TX: 0x119 = ff1ff4118fc9
TX: 0x109 = 00e0008000000067
TX: 0x199 = 2f7d200004ff009a
TX: 0x169 = 15011cac046000b8
TX: 0x119 = ff1ff41180ba
TX: 0x109 = 0000008000000087
TX: 0x159 = fbff4f5bff070000
TX: 0x149 = 0026026aaa040f95
TX: 0x129 = 000000200036
TX: 0x1A9 = 00000c0044
⚠️  ERROR CODE (0x3FF): 168
TX: 0x199 = 2f7d200004ff1057
TX: 0x169 = 18611cb404611034
TX: 0x119 = ff1ff41181bb
TX: 0x109 = 00200080000000a7
TX: 0x199 = 2f7d200004ff201d
TX: 0x169 = 1ba11cc084622014
TX: 0x119 = ff1ff41182bc
TX: 0x109 = 00400080000000c7
TX: 0x159 = fbff4f6bff170000
TX: 0x149 = 0026026aaa041fa5
TX: 0x129 = 000000201046
TX: 0x1A9 = 00000c1054
🎯 RADAR STATUS (0x300): State=15, Scan=176, Power=192
TX: 0x199 = 2f7d200004ff30d0
TX: 0x169 = 1e011dcc84633095
TX: 0x119 = ff1ff41183bd
TX: 0x109 = 00600080000000e7
Status: Not Present, VIN: 1/7, Time: 1.1s
TX: 0x199 = 2f7d200004ff4089
TX: 0x169 = 21411dd804654076
TX: 0x119 = ff1ff41184be
TX: 0x109 = 0080008000000007
TX: 0x159 = fbff4f7bff270000
TX: 0x149 = 0026026aaa042fb5
TX: 0x129 = 000000202056
TX: 0x1A9 = 00000c2064
TX: 0x209 = 00ff945213038000
TX: 0x219 = 000000000000a0ab
TX: 0x17C = 0040040a14000000
TX: 0x2B9 = 1153423745343347
TX: 0x2A9 = 4a16434110000210
TX: 0x2D9 = 8040830000000000
CAN decode error: non-hexadecimal number found in fromhex() arg at position 15
CAN error: Could not read from serial device
CAN decode error: non-hexadecimal number found in fromhex() arg at position 15
CAN error: Could not read from serial device
CAN error: Could not read from serial device
CAN decode error: invalid literal for int() with base 16: 't34D8FE0'
CAN error: Could not read from serial device
TX: 0x199 = 2f7d200004ff5044
TX: 0x169 = 24811de4046650d6
TX: 0x119 = ff1ff41185bf
TX: 0x109 = 00a0008000000027
TX: 0x199 = 2f7d200004ff600e
TX: 0x169 = 26e11dec846760d1
TX: 0x119 = ff1ff41186c0
TX: 0x109 = 00c0008000000047
TX: 0x159 = fbff4f8bff370000
TX: 0x149 = 0026026aaa043fc5
TX: 0x129 = 000000203066
TX: 0x1A9 = 00000c3074
⚠️  ERROR CODE (0x3FF): 176
TX: 0x199 = 2f7d200004ff70c3
TX: 0x169 = 29211ef884687032
TX: 0x119 = ff1ff41187c1
TX: 0x109 = 00e0008000000067
TX: 0x199 = 2f7d200004ff80bc
TX: 0x169 = 2c611e0485698093
TX: 0x119 = ff1ff41188c2
TX: 0x109 = 0000008000000087
TX: 0x159 = fbff4f9bff470000
TX: 0x149 = 0026026aaa044fd5
TX: 0x129 = 000000204076
TX: 0x1A9 = 00000c4084
🎯 RADAR STATUS (0x300): State=7, Scan=176, Power=64
TX: 0x199 = 2f7d200004ff9071
TX: 0x169 = 2fc11e0c056b9090
TX: 0x119 = ff1ff41189c3
TX: 0x109 = 00200080000000a7
TX: 0x199 = 2f7d200004ffa03b
TX: 0x169 = 32011f18056ca0f1
TX: 0x119 = ff1ff4118ac4
TX: 0x109 = 00400080000000c7
TX: 0x159 = fbff4fabff570000
TX: 0x149 = 0026026aaa045fe5
TX: 0x129 = 000000205086
TX: 0x1A9 = 00000c5094
TX: 0x199 = 2f7d200004ffb0f6
TX: 0x169 = 35611f24856db0f1
TX: 0x119 = ff1ff4118bc5
TX: 0x109 = 00600080000000e7
⚠️  ERROR CODE (0x3FF): 200
TX: 0x199 = 2f7d200004ffc0af
TX: 0x169 = 38a11f2c856ec04d
TX: 0x119 = ff1ff4118cc6
TX: 0x109 = 0080008000000007
TX: 0x159 = fbff4fbbff670000
TX: 0x149 = 0026026aaa046ff5
TX: 0x129 = 000000206096
TX: 0x1A9 = 00000c60a4
TX: 0x199 = 2f7d200004ffd062
TX: 0x169 = 3ae11f38856fd0ac
TX: 0x119 = ff1ff4118dc7
TX: 0x109 = 00a0008000000027
TX: 0x199 = 2f7d200004ffe028
TX: 0x169 = 3d2120440571e08e
TX: 0x119 = ff1ff4118ec8
TX: 0x109 = 00c0008000000047
TX: 0x159 = fbff4fcbff770000
TX: 0x149 = 0026026aaa047f05
TX: 0x129 = 0000002070a6
TX: 0x1A9 = 00000c70b4
TX: 0x209 = 00ff945213038000
TX: 0x219 = 000000000000b066
TX: 0x17C = 0040040b16000000
🎯 RADAR STATUS (0x300): State=6, Scan=180, Power=64
CAN error: Could not read from serial device
TX: 0x199 = 2f7d200004fff0e5
TX: 0x169 = 4081204c0572f00a
TX: 0x119 = ff1ff4118fc9
TX: 0x109 = 00e0008000000067
TX: 0x199 = 2f7d200004ff009a
TX: 0x169 = 43c12058857300ea
TX: 0x119 = ff1ff41180ba
TX: 0x109 = 0000008000000087
TX: 0x159 = fbff4fdbff870000
TX: 0x149 = 0026026aaa048f15
TX: 0x129 = 0000002080b6
TX: 0x1A9 = 00000c80c4
TX: 0x199 = 2f7d200004ff1057
TX: 0x169 = 460121648574104b
TX: 0x119 = ff1ff41181bb
TX: 0x109 = 00200080000000a7
⚠️  ERROR CODE (0x3FF): 208
TX: 0x199 = 2f7d200004ff201d
TX: 0x169 = 4961216c857520c7
TX: 0x119 = ff1ff41182bc
TX: 0x109 = 00400080000000c7
TX: 0x159 = fbff4febff970000
TX: 0x149 = 0026026aaa049f25
TX: 0x129 = 0000002090c6
TX: 0x1A9 = 00000c90d4
TX: 0x199 = 2f7d200004ff30d0
TX: 0x169 = 4ca12178057730a8
TX: 0x119 = ff1ff41183bd
TX: 0x109 = 00600080000000e7
🎯 RADAR STATUS (0x300): State=11, Scan=184, Power=192
TX: 0x199 = 2f7d200004ff4089
TX: 0x169 = 4ee1218405784007
TX: 0x119 = ff1ff41184be
TX: 0x109 = 0080008000000007
TX: 0x159 = fbff4ffbffa70000
TX: 0x149 = 0026026aaa04af35
TX: 0x129 = 00000020a0d6
TX: 0x1A9 = 00000ca0e4
TX: 0x199 = 2f7d200004ff5044
TX: 0x169 = 5141228c05795084
TX: 0x119 = ff1ff41185bf
TX: 0x109 = 00a0008000000027
TX: 0x199 = 2f7d200004ff600e
TX: 0x169 = 54812298857a6064
TX: 0x119 = ff1ff41186c0
TX: 0x109 = 00c0008000000047
TX: 0x159 = fbff4f0bffb70000
TX: 0x149 = 0026026aaa04bf45
TX: 0x129 = 00000020b0e6
TX: 0x1A9 = 00000cb0f4
TX: 0x199 = 2f7d200004ff70c3
TX: 0x169 = 57c122a4857b70c4
TX: 0x119 = ff1ff41187c1
TX: 0x109 = 00e0008000000067
⚠️  ERROR CODE (0x3FF): 232
TX: 0x199 = 2f7d200004ff80bc
TX: 0x169 = 5a2123ac057d80c2
TX: 0x119 = ff1ff41188c2
TX: 0x109 = 0000008000000087
TX: 0x159 = fbff4f1bffc70000
TX: 0x149 = 0026026aaa04cf55
TX: 0x129 = 00000020c0f6
TX: 0x1A9 = 00000cc004
TX: 0x209 = 00ff945213038000
TX: 0x219 = 000000000000c03f
TX: 0x17C = 0040040c18000000
TX: 0x199 = 2f7d200004ff9071
TX: 0x169 = 5d6123b8057e9022
TX: 0x119 = ff1ff41189c3
TX: 0x109 = 00200080000000a7
CAN decode error: non-hexadecimal number found in fromhex() arg at position 15
CAN error: Could not read from serial device
TX: 0x199 = 2f7d200004ffa03b
TX: 0x169 = 5fa123c4057fa081
TX: 0x119 = ff1ff4118ac4
TX: 0x109 = 00400080000000c7
TX: 0x159 = fbff4f2bffd70000
TX: 0x149 = 0026026aaa04df65
TX: 0x129 = 00000020d006
TX: 0x1A9 = 00000cd014
TX: 0x199 = 2f7d200004ffb0f6
TX: 0x169 = 620124cc8580b07e
TX: 0x119 = ff1ff4118bc5
TX: 0x109 = 00600080000000e7
TX: 0x199 = 2f7d200004ffc0af
TX: 0x169 = 654124d88581c0de
TX: 0x119 = ff1ff4118cc6
TX: 0x109 = 0080008000000007
TX: 0x159 = fbff4f3bffe70000
TX: 0x149 = 0026026aaa04ef75
TX: 0x129 = 00000020e016
TX: 0x1A9 = 00000ce024
⚠️  ERROR CODE (0x3FF): 240
TX: 0x199 = 2f7d200004ffd062
TX: 0x169 = 688124e40583d0bf
TX: 0x119 = ff1ff4118dc7
TX: 0x109 = 00a0008000000027
TX: 0x2B9 = 1246313133313035
VIN transmission cycle: 2/7
TX: 0x199 = 2f7d200004ffe028
TX: 0x169 = 6be124ec0584e03b
TX: 0x119 = ff1ff4118ec8
TX: 0x109 = 00c0008000000047
TX: 0x159 = fbff4f4bfff70000
TX: 0x149 = 0026026aaa04ff85
TX: 0x129 = 00000020f026
TX: 0x1A9 = 00000cf034
🎯 RADAR STATUS (0x300): State=11, Scan=204, Power=0
TX: 0x199 = 2f7d200004fff0e5
TX: 0x169 = 6d2125f80585f09b
TX: 0x119 = ff1ff4118fc9
TX: 0x109 = 00e0008000000067
TX: 0x199 = 2f7d200004ff009a
TX: 0x169 = 7061250086860078
TX: 0x119 = ff1ff41180ba
TX: 0x109 = 0000008000000087
TX: 0x159 = fbff4f5bff070000
TX: 0x149 = 0026026aaa040f95
TX: 0x129 = 000000200036
TX: 0x1A9 = 00000c0044
TX: 0x199 = 2f7d200004ff1057
TX: 0x169 = 73c1250c868710f8
TX: 0x119 = ff1ff41181bb
TX: 0x109 = 00200080000000a7
⚠️  ERROR CODE (0x3FF): 8
TX: 0x199 = 2f7d200004ff201d
TX: 0x169 = 76012618068920da
TX: 0x119 = ff1ff41182bc
TX: 0x109 = 00400080000000c7
TX: 0x159 = fbff4f6bff170000
TX: 0x149 = 0026026aaa041fa5
TX: 0x129 = 000000201046
TX: 0x1A9 = 00000c1054
TX: 0x209 = 00ff945213038000
TX: 0x219 = 000000000000d0f2
TX: 0x17C = 0040040d1a000000
TX: 0x199 = 2f7d200004ff30d0
TX: 0x169 = 79412624068a303a
TX: 0x119 = ff1ff41183bd
TX: 0x109 = 00600080000000e7
TX: 0x199 = 2f7d200004ff4089
TX: 0x169 = 7ca1262c868b4036
TX: 0x119 = ff1ff41184be
TX: 0x109 = 0080008000000007
TX: 0x159 = fbff4f7bff270000
TX: 0x149 = 0026026aaa042fb5
TX: 0x129 = 000000202056
TX: 0x1A9 = 00000c2064
🎯 RADAR STATUS (0x300): State=7, Scan=220, Power=64
TX: 0x199 = 2f7d200004ff5044
TX: 0x169 = 7ee12638868c5095
TX: 0x119 = ff1ff41185bf
TX: 0x109 = 00a0008000000027
CAN decode error: non-hexadecimal number found in fromhex() arg at position 15
CAN error: Could not read from serial device
CAN error: Could not read from serial device
CAN error: Could not read from serial device
TX: 0x199 = 2f7d200004ff600e
TX: 0x169 = 81412744868d6016
TX: 0x119 = ff1ff41186c0
TX: 0x109 = 00c0008000000047
TX: 0x159 = fbff4f8bff370000
TX: 0x149 = 0026026aaa043fc5
TX: 0x129 = 000000203066
TX: 0x1A9 = 00000c3074
TX: 0x199 = 2f7d200004ff70c3
TX: 0x169 = 8481274c068f70f3
TX: 0x119 = ff1ff41187c1
TX: 0x109 = 00e0008000000067
TX: 0x199 = 2f7d200004ff80bc
TX: 0x169 = 87c1275806908053
TX: 0x119 = ff1ff41188c2
TX: 0x109 = 0000008000000087
TX: 0x159 = fbff4f9bff470000
TX: 0x149 = 0026026aaa044fd5
TX: 0x129 = 000000204076
TX: 0x1A9 = 00000c4084
⚠️  ERROR CODE (0x3FF): 16
TX: 0x199 = 2f7d200004ff9071
TX: 0x169 = 8a21286486919054
TX: 0x119 = ff1ff41189c3
TX: 0x109 = 00200080000000a7
🎯 RADAR STATUS (0x300): State=2, Scan=236, Power=128
TX: 0x199 = 2f7d200004ffa03b
TX: 0x169 = 8d6128708692a0b4
TX: 0x119 = ff1ff4118ac4
TX: 0x109 = 00400080000000c7
TX: 0x159 = fbff4fabff570000
TX: 0x149 = 0026026aaa045fe5
TX: 0x129 = 000000205086
TX: 0x1A9 = 00000c5094
TX: 0x199 = 2f7d200004ffb0f6
TX: 0x169 = 90c1287c0694b0b5
TX: 0x119 = ff1ff4118bc5
TX: 0x109 = 00600080000000e7
⚠️  ERROR CODE (0x3FF): 40
TX: 0x199 = 2f7d200004ffc0af
TX: 0x169 = 930129840695c012
TX: 0x119 = ff1ff4118cc6
TX: 0x109 = 0080008000000007
TX: 0x159 = fbff4fbbff670000
TX: 0x149 = 0026026aaa046ff5
TX: 0x129 = 000000206096
TX: 0x1A9 = 00000c60a4
TX: 0x209 = 00ff945213038000
TX: 0x219 = 000000000000e0b8
TX: 0x17C = 0040040e1c000000
TX: 0x199 = 2f7d200004ffd062
TX: 0x169 = 964129908696d0f2
TX: 0x119 = ff1ff4118dc7
TX: 0x109 = 00a0008000000027
TX: 0x199 = 2f7d200004ffe028
TX: 0x169 = 99a1299c8697e072
TX: 0x119 = ff1ff4118ec8
TX: 0x109 = 00c0008000000047
TX: 0x159 = fbff4fcbff770000
TX: 0x149 = 0026026aaa047f05
TX: 0x129 = 0000002070a6
TX: 0x1A9 = 00000c70b4
TX: 0x199 = 2f7d200004fff0e5
TX: 0x169 = 9c012aa80699f074
TX: 0x119 = ff1ff4118fc9
TX: 0x109 = 00e0008000000067
CAN decode error: non-hexadecimal number found in fromhex() arg at position 15
CAN decode error: non-hexadecimal number found in fromhex() arg at position 15
CAN error: Could not read from serial device
TX: 0x199 = 2f7d200004ff009a
TX: 0x169 = 9f412ab0069a00d0
TX: 0x119 = ff1ff41180ba
TX: 0x109 = 0000008000000087
TX: 0x159 = fbff4fdbff870000
TX: 0x149 = 0026026aaa048f15
TX: 0x129 = 0000002080b6
TX: 0x1A9 = 00000c80c4
TX: 0x199 = 2f7d200004ff1057
TX: 0x169 = a2812abc869b10b0
TX: 0x119 = ff1ff41181bb
TX: 0x109 = 00200080000000a7
TX: 0x199 = 2f7d200004ff201d
TX: 0x169 = a5e12ac8069d20b1
TX: 0x119 = ff1ff41182bc
TX: 0x109 = 00400080000000c7
TX: 0x159 = fbff4febff970000
TX: 0x149 = 0026026aaa049f25
TX: 0x129 = 0000002090c6
TX: 0x1A9 = 00000c90d4
⚠️  ERROR CODE (0x3FF): 48
TX: 0x199 = 2f7d200004ff30d0
TX: 0x169 = a8212bd4069e3012
TX: 0x119 = ff1ff41183bd
TX: 0x109 = 00600080000000e7
TX: 0x199 = 2f7d200004ff4089
TX: 0x169 = ab812be0069f4092
TX: 0x119 = ff1ff41184be
TX: 0x109 = 0080008000000007
TX: 0x159 = fbff4ffbffa70000
TX: 0x149 = 0026026aaa04af35
TX: 0x129 = 00000020a0d6
TX: 0x1A9 = 00000ca0e4
🎯 RADAR STATUS (0x300): State=12, Scan=8, Power=193
TX: 0x199 = 2f7d200004ff5044
TX: 0x169 = aec12be886a0506e
TX: 0x119 = ff1ff41185bf
TX: 0x109 = 00a0008000000027
TX: 0x199 = 2f7d200004ff600e
TX: 0x169 = b1212cf406a26070
TX: 0x119 = ff1ff41186c0
TX: 0x109 = 00c0008000000047
TX: 0x159 = fbff4f0bffb70000
TX: 0x149 = 0026026aaa04bf45
TX: 0x129 = 00000020b0e6
TX: 0x1A9 = 00000cb0f4
TX: 0x209 = 00ff945213038000
TX: 0x219 = 000000000000f075
TX: 0x17C = 0040040f1f000000
TX: 0x2B9 = 100000000035594a
TX: 0x199 = 2f7d200004ff70c3
TX: 0x169 = b3612c0007a370d0
TX: 0x119 = ff1ff41187c1
TX: 0x109 = 00e0008000000067
⚠️  ERROR CODE (0x3FF): 72
TX: 0x199 = 2f7d200004ff80bc
TX: 0x169 = b6a12c0807a4802c
TX: 0x119 = ff1ff41188c2
TX: 0x109 = 0000008000000087
TX: 0x159 = fbff4f1bffc70000
TX: 0x149 = 0026026aaa04cf55
TX: 0x129 = 00000020c0f6
TX: 0x1A9 = 00000cc004
TX: 0x199 = 2f7d200004ff9071
TX: 0x169 = b8e12c1407a5908b
TX: 0x119 = ff1ff41189c3
TX: 0x109 = 00200080000000a7
TX: 0x199 = 2f7d200004ffa03b
TX: 0x169 = bb212d1c87a6a068
TX: 0x119 = ff1ff4118ac4
TX: 0x109 = 00400080000000c7
TX: 0x159 = fbff4f2bffd70000
TX: 0x149 = 0026026aaa04df65
TX: 0x129 = 00000020d006
TX: 0x1A9 = 00000cd014
RX: 0x300 = 3618c1175d003000
CAN error: Could not read from serial device
CAN error: Could not read from serial device
CAN decode error: non-hexadecimal number found in fromhex() arg at position 15
TX: 0x199 = 2f7d200004ffb0f6
TX: 0x169 = be812d2887a7b0e8
TX: 0x119 = ff1ff4118bc5
TX: 0x109 = 00600080000000e7
CAN error: Could not read from serial device
TX: 0x199 = 2f7d200004ffc0af
TX: 0x169 = c1c12d3087a8c044
TX: 0x119 = ff1ff4118cc6
TX: 0x109 = 0080008000000007
TX: 0x159 = fbff4f3bffe70000
TX: 0x149 = 0026026aaa04ef75
TX: 0x129 = 00000020e016
TX: 0x1A9 = 00000ce024
TX: 0x199 = 2f7d200004ffd062
TX: 0x169 = c3012e3c07aad025
TX: 0x119 = ff1ff4118dc7
TX: 0x109 = 00a0008000000027
TX: 0x199 = 2f7d200004ffe028
TX: 0x169 = c6612e4407abe0a1
TX: 0x119 = ff1ff4118ec8
TX: 0x109 = 00c0008000000047
TX: 0x159 = fbff4f4bfff70000
TX: 0x149 = 0026026aaa04ff85
TX: 0x129 = 00000020f026
TX: 0x1A9 = 00000cf034
⚠️  ERROR CODE (0x3FF): 80
TX: 0x199 = 2f7d200004fff0e5
TX: 0x169 = c9a12e5007acf001
TX: 0x119 = ff1ff4118fc9
TX: 0x109 = 00e0008000000067
TX: 0x199 = 2f7d200004ff009a
TX: 0x169 = cce12e5c87ad00e1
TX: 0x119 = ff1ff41180ba
TX: 0x109 = 0000008000000087
TX: 0x159 = fbff4f5bff070000
TX: 0x149 = 0026026aaa040f95
TX: 0x129 = 000000200036
TX: 0x1A9 = 00000c0044
TX: 0x209 = 00ff945213038000
TX: 0x219 = 000000000000000a
TX: 0x17C = 0040041021000000
🎯 RADAR STATUS (0x300): State=11, Scan=32, Power=65
TX: 0x199 = 2f7d200004ff1057
TX: 0x169 = cf412f6487ae105e
TX: 0x119 = ff1ff41181bb
TX: 0x109 = 00200080000000a7
TX: 0x199 = 2f7d200004ff201d
TX: 0x169 = d1812f7007b0203e
TX: 0x119 = ff1ff41182bc
TX: 0x109 = 00400080000000c7
TX: 0x159 = fbff4f6bff170000
TX: 0x149 = 0026026aaa041fa5
TX: 0x129 = 000000201046
TX: 0x1A9 = 00000c1054
TX: 0x199 = 2f7d200004ff30d0
TX: 0x169 = d4c12f7c07b1309e
TX: 0x119 = ff1ff41183bd
TX: 0x109 = 00600080000000e7
⚠️  ERROR CODE (0x3FF): 104
TX: 0x199 = 2f7d200004ff4089
TX: 0x169 = d721308407b2401b
TX: 0x119 = ff1ff41184be
TX: 0x109 = 0080008000000007
TX: 0x159 = fbff4f7bff270000
TX: 0x149 = 0026026aaa042fb5
TX: 0x129 = 000000202056
TX: 0x1A9 = 00000c2064
TX: 0x199 = 2f7d200004ff5044
TX: 0x169 = da61309087b350fb
TX: 0x119 = ff1ff41185bf
TX: 0x109 = 00a0008000000027
CAN error: Could not read from serial device
TX: 0x199 = 2f7d200004ff600e
TX: 0x169 = dda1309c87b4605b
TX: 0x119 = ff1ff41186c0
TX: 0x109 = 00c0008000000047
TX: 0x159 = fbff4f8bff370000
TX: 0x149 = 0026026aaa043fc5
TX: 0x129 = 000000203066
TX: 0x1A9 = 00000c3074
TX: 0x199 = 2f7d200004ff70c3
TX: 0x169 = e00131a407b67059
TX: 0x119 = ff1ff41187c1
TX: 0x109 = 00e0008000000067
TX: 0x199 = 2f7d200004ff80bc
TX: 0x169 = e24131b007b780b8
TX: 0x119 = ff1ff41188c2
TX: 0x109 = 0000008000000087
TX: 0x159 = fbff4f9bff470000
TX: 0x149 = 0026026aaa044fd5
TX: 0x129 = 000000204076
TX: 0x1A9 = 00000c4084
TX: 0x199 = 2f7d200004ff9071
TX: 0x169 = e58131b807b89014
TX: 0x119 = ff1ff41189c3
TX: 0x109 = 00200080000000a7
⚠️  ERROR CODE (0x3FF): 112
TX: 0x199 = 2f7d200004ffa03b
TX: 0x169 = e8e131c487b9a014
TX: 0x119 = ff1ff4118ac4
TX: 0x109 = 00400080000000c7
TX: 0x159 = fbff4fabff570000
TX: 0x149 = 0026026aaa045fe5
TX: 0x129 = 000000205086
TX: 0x1A9 = 00000c5094
TX: 0x209 = 00ff945213038000
TX: 0x219 = 00000000000010c7
TX: 0x17C = 0040041123000000
TX: 0x199 = 2f7d200004ffb0f6
TX: 0x169 = eb2132d087bab075
TX: 0x119 = ff1ff4118bc5
TX: 0x109 = 00600080000000e7
🎯 RADAR STATUS (0x300): State=11, Scan=68, Power=65
TX: 0x199 = 2f7d200004ffc0af
TX: 0x169 = ee8132dc07bcc076
TX: 0x119 = ff1ff4118cc6
TX: 0x109 = 0080008000000007
TX: 0x159 = fbff4fbbff670000
TX: 0x149 = 0026026aaa046ff5
TX: 0x129 = 000000206096
TX: 0x1A9 = 00000c60a4
TX: 0x199 = 2f7d200004ffd062
TX: 0x169 = f0c132e407bdd0d1
TX: 0x119 = ff1ff4118dc7
TX: 0x109 = 00a0008000000027
TX: 0x199 = 2f7d200004ffe028
⚠️  ERROR CODE (0x3FF): 136
TX: 0x169 = f32133f087bee0d2
TX: 0x119 = ff1ff4118ec8
TX: 0x109 = 00c0008000000047
TX: 0x159 = fbff4fcbff770000
TX: 0x149 = 0026026aaa047f05
TX: 0x129 = 0000002070a6
TX: 0x1A9 = 00000c70b4
TX: 0x199 = 2f7d200004fff0e5
TX: 0x169 = f66133f887bff02e
TX: 0x119 = ff1ff4118fc9
TX: 0x109 = 00e0008000000067
TX: 0x2B9 = 1153423745343347
TX: 0x199 = 2f7d200004ff009a
TX: 0x169 = f9a1330408c10010
TX: 0x119 = ff1ff41180ba
TX: 0x109 = 0000008000000087
TX: 0x159 = fbff4fdbff870000
TX: 0x149 = 0026026aaa048f15
TX: 0x129 = 0000002080b6
TX: 0x1A9 = 00000c80c4
TX: 0x199 = 2f7d200004ff1057
TX: 0x169 = fc01341008c21091
TX: 0x119 = ff1ff41181bb
TX: 0x109 = 00200080000000a7
CAN decode error: non-hexadecimal number found in fromhex() arg at position 15
CAN error: Could not read from serial device
TX: 0x199 = 2f7d200004ff201d
TX: 0x169 = ff41341c88c32071
TX: 0x119 = ff1ff41182bc
TX: 0x109 = 00400080000000c7
TX: 0x159 = fbff4febff970000
TX: 0x149 = 0026026aaa049f25
TX: 0x129 = 0000002090c6
TX: 0x1A9 = 00000c90d4
TX: 0x199 = 2f7d200004ff30d0
TX: 0x169 = 0182342488c430cd
TX: 0x119 = ff1ff41183bd
TX: 0x109 = 00600080000000e7
TX: 0x199 = 2f7d200004ff4089
TX: 0x169 = 04e2343088c5404d
TX: 0x119 = ff1ff41184be
TX: 0x109 = 0080008000000007
TX: 0x159 = fbff4ffbffa70000
TX: 0x149 = 0026026aaa04af35
TX: 0x129 = 00000020a0d6
TX: 0x1A9 = 00000ca0e4
TX: 0x209 = 00ff945213038000
TX: 0x219 = 000000000000208d
TX: 0x17C = 0040041225000000
⚠️  ERROR CODE (0x3FF): 144
TX: 0x199 = 2f7d200004ff5044
TX: 0x169 = 0722353c08c7502f
TX: 0x119 = ff1ff41185bf
TX: 0x109 = 00a0008000000027
TX: 0x199 = 2f7d200004ff600e
TX: 0x169 = 0a82354888c8602f
TX: 0x119 = ff1ff41186c0
TX: 0x109 = 00c0008000000047
TX: 0x159 = fbff4f0bffb70000
TX: 0x149 = 0026026aaa04bf45
TX: 0x129 = 00000020b0e6
TX: 0x1A9 = 00000cb0f4
🎯 RADAR STATUS (0x300): State=11, Scan=88, Power=129
TX: 0x199 = 2f7d200004ff70c3
TX: 0x169 = 0dc2355088c9708b
TX: 0x119 = ff1ff41187c1
TX: 0x109 = 00e0008000000067
TX: 0x199 = 2f7d200004ff80bc
TX: 0x169 = 1022365c88ca800c
TX: 0x119 = ff1ff41188c2
TX: 0x109 = 0000008000000087
TX: 0x159 = fbff4f1bffc70000
TX: 0x149 = 0026026aaa04cf55
TX: 0x129 = 00000020c0f6
TX: 0x1A9 = 00000cc004
TX: 0x199 = 2f7d200004ff9071
TX: 0x169 = 1362366808cc90ed
TX: 0x119 = ff1ff41189c3
TX: 0x109 = 00200080000000a7
⚠️  ERROR CODE (0x3FF): 168
TX: 0x199 = 2f7d200004ffa03b
TX: 0x169 = 16c2367088cda0e9
TX: 0x119 = ff1ff4118ac4
TX: 0x109 = 00400080000000c7
TX: 0x159 = fbff4f2bffd70000
TX: 0x149 = 0026026aaa04df65
TX: 0x129 = 00000020d006
TX: 0x1A9 = 00000cd014
TX: 0x199 = 2f7d200004ffb0f6
TX: 0x169 = 1902377c88ceb04a
TX: 0x119 = ff1ff4118bc5
TX: 0x109 = 00600080000000e7
CAN error: Could not read from serial device
🎯 RADAR STATUS (0x300): State=7, Scan=100, Power=193
TX: 0x199 = 2f7d200004ffc0af
TX: 0x169 = 1b42378888cfc0a9
TX: 0x119 = ff1ff4118cc6
TX: 0x109 = 0080008000000007
TX: 0x159 = fbff4f3bffe70000
TX: 0x149 = 0026026aaa04ef75
TX: 0x129 = 00000020e016
TX: 0x1A9 = 00000ce024
TX: 0x199 = 2f7d200004ffd062
TX: 0x169 = 1ea2379008d1d0a6
TX: 0x119 = ff1ff4118dc7
TX: 0x109 = 00a0008000000027
TX: 0x199 = 2f7d200004ffe028
TX: 0x169 = 21e2379c08d2e006
TX: 0x119 = ff1ff4118ec8
TX: 0x109 = 00c0008000000047
TX: 0x159 = fbff4f4bfff70000
TX: 0x149 = 0026026aaa04ff85
TX: 0x129 = 00000020f026
TX: 0x1A9 = 00000cf034
TX: 0x209 = 00ff945213038000
TX: 0x219 = 0000000000003040
TX: 0x17C = 0040041327000000
TX: 0x199 = 2f7d200004fff0e5
TX: 0x169 = 242238a888d3f0e7
TX: 0x119 = ff1ff4118fc9
TX: 0x109 = 00e0008000000067
⚠️  ERROR CODE (0x3FF): 176
TX: 0x199 = 2f7d200004ff009a
TX: 0x169 = 278238b088d40063
TX: 0x119 = ff1ff41180ba
TX: 0x109 = 0000008000000087
TX: 0x159 = fbff4f5bff070000
TX: 0x149 = 0026026aaa040f95
TX: 0x129 = 000000200036
TX: 0x1A9 = 00000c0044
TX: 0x199 = 2f7d200004ff1057
TX: 0x169 = 2ac238bc08d61044
🎯 RADAR STATUS (0x300): State=11, Scan=104, Power=193
TX: 0x119 = ff1ff41181bb
TX: 0x109 = 00200080000000a7
TX: 0x199 = 2f7d200004ff201d
TX: 0x169 = 2d2239c808d720c5
TX: 0x119 = ff1ff41182bc
TX: 0x109 = 00400080000000c7
TX: 0x159 = fbff4f6bff170000
TX: 0x149 = 0026026aaa041fa5
TX: 0x129 = 000000201046
TX: 0x1A9 = 00000c1054
TX: 0x199 = 2f7d200004ff30d0
TX: 0x169 = 306239d488d830a5
TX: 0x119 = ff1ff41183bd
TX: 0x109 = 00600080000000e7
TX: 0x199 = 2f7d200004ff4089
TX: 0x169 = 32c239dc88d94020
TX: 0x119 = ff1ff41184be
TX: 0x109 = 0080008000000007
TX: 0x159 = fbff4f7bff270000
TX: 0x149 = 0026026aaa042fb5
TX: 0x129 = 000000202056
TX: 0x1A9 = 00000c2064
⚠️  ERROR CODE (0x3FF): 200
TX: 0x199 = 2f7d200004ff5044
TX: 0x169 = 35023ae808db5002
TX: 0x119 = ff1ff41185bf
TX: 0x109 = 00a0008000000027
TX: 0x199 = 2f7d200004ff600e
TX: 0x169 = 38623af488dc6002
TX: 0x119 = ff1ff41186c0
TX: 0x109 = 00c0008000000047
TX: 0x159 = fbff4f8bff370000
TX: 0x149 = 0026026aaa043fc5
TX: 0x129 = 000000203066
TX: 0x1A9 = 00000c3074
TX: 0x199 = 2f7d200004ff70c3
TX: 0x169 = 3ba23a0089dd7063
TX: 0x119 = ff1ff41187c1
TX: 0x109 = 00e0008000000067
Status: Not Present, VIN: 2/7, Time: 2.2s
CAN error: Could not read from serial device
TX: 0x199 = 2f7d200004ff80bc
TX: 0x169 = 3e023b0c09df8065
TX: 0x119 = ff1ff41188c2
TX: 0x109 = 0000008000000087
TX: 0x159 = fbff4f9bff470000
TX: 0x149 = 0026026aaa044fd5
TX: 0x129 = 000000204076
TX: 0x1A9 = 00000c4084
TX: 0x209 = 00ff945213038000
TX: 0x219 = 0000000000004019
TX: 0x17C = 0040041429000000
TX: 0x2B9 = 1246313133313035
VIN transmission cycle: 3/7
TX: 0x2A9 = 4a16434110000210
TX: 0x2D9 = 8040830000000000
TX: 0x199 = 2f7d200004ff9071
TX: 0x169 = 41623b1409e090e1
TX: 0x119 = ff1ff41189c3
TX: 0x109 = 00200080000000a7
TX: 0x199 = 2f7d200004ffa03b
TX: 0x169 = 44a23b2089e1a0c1
TX: 0x119 = ff1ff4118ac4
TX: 0x109 = 00400080000000c7
TX: 0x159 = fbff4fabff570000
TX: 0x149 = 0026026aaa045fe5
TX: 0x129 = 000000205086
TX: 0x1A9 = 00000c5094
⚠️  ERROR CODE (0x3FF): 208
TX: 0x199 = 2f7d200004ffb0f6
TX: 0x169 = 47e23b2c89e2b021
TX: 0x119 = ff1ff4118bc5
TX: 0x109 = 00600080000000e7
TX: 0x199 = 2f7d200004ffc0af
TX: 0x169 = 4a423c3409e4c01f
TX: 0x119 = ff1ff4118cc6
TX: 0x109 = 0080008000000007
TX: 0x159 = fbff4fbbff670000
TX: 0x149 = 0026026aaa046ff5
TX: 0x129 = 000000206096
TX: 0x1A9 = 00000c60a4
🎯 RADAR STATUS (0x300): State=9, Scan=128, Power=65
TX: 0x199 = 2f7d200004ffd062
TX: 0x169 = 4c823c4009e5d07e
TX: 0x119 = ff1ff4118dc7
TX: 0x109 = 00a0008000000027
TX: 0x199 = 2f7d200004ffe028
TX: 0x169 = 4fc23c4809e6e0da
TX: 0x119 = ff1ff4118ec8
TX: 0x109 = 00c0008000000047
TX: 0x159 = fbff4fcbff770000
TX: 0x149 = 0026026aaa047f05
TX: 0x129 = 0000002070a6
TX: 0x1A9 = 00000c70b4
TX: 0x199 = 2f7d200004fff0e5
TX: 0x169 = 52223d5489e7f0db
TX: 0x119 = ff1ff4118fc9
TX: 0x109 = 00e0008000000067
⚠️  ERROR CODE (0x3FF): 232
TX: 0x199 = 2f7d200004ff009a
TX: 0x169 = 55623d6009e900bc
TX: 0x119 = ff1ff41180ba
TX: 0x109 = 0000008000000087
TX: 0x159 = fbff4fdbff870000
TX: 0x149 = 0026026aaa048f15
TX: 0x129 = 0000002080b6
TX: 0x1A9 = 00000c80c4
TX: 0x199 = 2f7d200004ff1057
TX: 0x169 = 57c23d6809ea1037
TX: 0x119 = ff1ff41181bb
TX: 0x109 = 00200080000000a7
CAN error: Could not read from serial device
TX: 0x199 = 2f7d200004ff201d
TX: 0x169 = 5a023e7409eb2098
TX: 0x119 = ff1ff41182bc
TX: 0x109 = 00400080000000c7
TX: 0x159 = fbff4febff970000
TX: 0x149 = 0026026aaa049f25
TX: 0x129 = 0000002090c6
TX: 0x1A9 = 00000c90d4
TX: 0x209 = 00ff945213038000
TX: 0x219 = 00000000000050d4
TX: 0x17C = 004004152b000000
TX: 0x199 = 2f7d200004ff30d0
TX: 0x169 = 5d623e8089ec3098
TX: 0x119 = ff1ff41183bd
TX: 0x109 = 00600080000000e7
TX: 0x199 = 2f7d200004ff4089
TX: 0x169 = 60a23e8c09ee4079
TX: 0x119 = ff1ff41184be
TX: 0x109 = 0080008000000007
TX: 0x159 = fbff4ffbffa70000
TX: 0x149 = 0026026aaa04af35
TX: 0x129 = 00000020a0d6
TX: 0x1A9 = 00000ca0e4
⚠️  ERROR CODE (0x3FF): 240
TX: 0x199 = 2f7d200004ff5044
TX: 0x169 = 63e23e9409ef50d5
TX: 0x119 = ff1ff41185bf
TX: 0x109 = 00a0008000000027
TX: 0x199 = 2f7d200004ff600e
TX: 0x169 = 66423fa089f060d6
TX: 0x119 = ff1ff41186c0
TX: 0x109 = 00c0008000000047
TX: 0x159 = fbff4f0bffb70000
TX: 0x149 = 0026026aaa04bf45
TX: 0x129 = 00000020b0e6
TX: 0x1A9 = 00000cb0f4
🎯 RADAR STATUS (0x300): State=10, Scan=148, Power=193
TX: 0x199 = 2f7d200004ff70c3
TX: 0x169 = 69823fac89f17036
TX: 0x119 = ff1ff41187c1
TX: 0x109 = 00e0008000000067
TX: 0x199 = 2f7d200004ff80bc
TX: 0x169 = 6ce23fb809f38037
TX: 0x119 = ff1ff41188c2
TX: 0x109 = 0000008000000087
TX: 0x159 = fbff4f1bffc70000
TX: 0x149 = 0026026aaa04cf55
TX: 0x129 = 00000020c0f6
TX: 0x1A9 = 00000cc004
TX: 0x199 = 2f7d200004ff9071
TX: 0x169 = 6e2240c009f49093
TX: 0x119 = ff1ff41189c3
TX: 0x109 = 00200080000000a7
⚠️  ERROR CODE (0x3FF): 8
TX: 0x199 = 2f7d200004ffa03b
TX: 0x169 = 718240cc89f5a093
TX: 0x119 = ff1ff4118ac4
TX: 0x109 = 00400080000000c7
TX: 0x159 = fbff4f2bffd70000
TX: 0x149 = 0026026aaa04df65
TX: 0x129 = 00000020d006
TX: 0x1A9 = 00000cd014
TX: 0x199 = 2f7d200004ffb0f6
TX: 0x169 = 74c240d889f6b0f3
TX: 0x119 = ff1ff4118bc5
TX: 0x109 = 00600080000000e7
TX: 0x199 = 2f7d200004ffc0af
TX: 0x169 = 772241e009f8c0f1
TX: 0x119 = ff1ff4118cc6
TX: 0x109 = 0080008000000007
TX: 0x159 = fbff4f3bffe70000
TX: 0x149 = 0026026aaa04ef75
TX: 0x129 = 00000020e016
TX: 0x1A9 = 00000ce024
TX: 0x209 = 00ff945213038000
TX: 0x219 = 000000000000609e
TX: 0x17C = 004004162d000000
CAN decode error: non-hexadecimal number found in fromhex() arg at position 15
CAN error: Could not read from serial device
TX: 0x199 = 2f7d200004ffd062
TX: 0x169 = 7a6241ec09f9d051
TX: 0x119 = ff1ff4118dc7
TX: 0x109 = 00a0008000000027
TX: 0x199 = 2f7d200004ffe028
TX: 0x169 = 7dc241f889fae051
TX: 0x119 = ff1ff4118ec8
TX: 0x109 = 00c0008000000047
TX: 0x159 = fbff4f4bfff70000
TX: 0x149 = 0026026aaa04ff85
TX: 0x129 = 00000020f026
TX: 0x1A9 = 00000cf034
TX: 0x199 = 2f7d200004fff0e5
TX: 0x169 = 7f0242008afbf0ae
TX: 0x119 = ff1ff4118fc9
TX: 0x109 = 00e0008000000067
⚠️  ERROR CODE (0x3FF): 16
TX: 0x199 = 2f7d200004ff009a
TX: 0x169 = 8242420c0afd008f
TX: 0x119 = ff1ff41180ba
TX: 0x109 = 0000008000000087
TX: 0x159 = fbff4f5bff070000
TX: 0x149 = 0026026aaa040f95
TX: 0x129 = 000000200036
TX: 0x1A9 = 00000c0044
TX: 0x199 = 2f7d200004ff1057
TX: 0x169 = 85a242180afe100f
TX: 0x119 = ff1ff41181bb
TX: 0x109 = 00200080000000a7
TX: 0x2B9 = 100000000035594a
TX: 0x199 = 2f7d200004ff201d
TX: 0x169 = 88e242208aff20eb
TX: 0x119 = ff1ff41182bc
TX: 0x109 = 00400080000000c7
🎯 RADAR STATUS (0x300): State=11, Scan=172, Power=129
TX: 0x159 = fbff4f6bff170000
TX: 0x149 = 0026026aaa041fa5
TX: 0x129 = 000000201046
TX: 0x1A9 = 00000c1054
TX: 0x199 = 2f7d200004ff30d0
TX: 0x169 = 8b42432c8a00316d
TX: 0x119 = ff1ff41183bd
TX: 0x109 = 00600080000000e7
TX: 0x199 = 2f7d200004ff4089
TX: 0x169 = 8e8243380a02414e
TX: 0x119 = ff1ff41184be
TX: 0x109 = 0080008000000007
TX: 0x159 = fbff4f7bff270000
TX: 0x149 = 0026026aaa042fb5
TX: 0x129 = 000000202056
TX: 0x1A9 = 00000c2064
TX: 0x199 = 2f7d200004ff5044
TX: 0x169 = 91e243440a0351ce
TX: 0x119 = ff1ff41185bf
TX: 0x109 = 00a0008000000027
⚠️  ERROR CODE (0x3FF): 40
TX: 0x199 = 2f7d200004ff600e
TX: 0x169 = 9442444c8a0461cb
TX: 0x119 = ff1ff41186c0
TX: 0x109 = 00c0008000000047
TX: 0x159 = fbff4f8bff370000
TX: 0x149 = 0026026aaa043fc5
TX: 0x129 = 000000203066
TX: 0x1A9 = 00000c3074
TX: 0x209 = 00ff945213038000
TX: 0x219 = 0000000000007053
TX: 0x17C = 004004172f000000
TX: 0x199 = 2f7d200004ff70c3
TX: 0x169 = 978244580a0671ac
TX: 0x119 = ff1ff41187c1
TX: 0x109 = 00e0008000000067
RX: 0x300 = 37b4c1153a003000
CAN error: Could not read from serial device
CAN decode error: non-hexadecimal number found in fromhex() arg at position 7
CAN error: Could not read from serial device
TX: 0x199 = 2f7d200004ff80bc
TX: 0x169 = 99c244640a07810b
TX: 0x119 = ff1ff41188c2
TX: 0x109 = 0000008000000087
TX: 0x159 = fbff4f9bff470000
TX: 0x149 = 0026026aaa044fd5
TX: 0x129 = 000000204076
TX: 0x1A9 = 00000c4084
TX: 0x199 = 2f7d200004ff9071
TX: 0x169 = 9c22456c0a089188
TX: 0x119 = ff1ff41189c3
TX: 0x109 = 00200080000000a7
TX: 0x199 = 2f7d200004ffa03b
TX: 0x169 = 9f6245788a09a168
TX: 0x119 = ff1ff4118ac4
TX: 0x109 = 00400080000000c7
TX: 0x159 = fbff4fabff570000
TX: 0x149 = 0026026aaa045fe5
TX: 0x129 = 000000205086
TX: 0x1A9 = 00000c5094
⚠️  ERROR CODE (0x3FF): 48
TX: 0x199 = 2f7d200004ffb0f6
TX: 0x169 = a2c245840a0bb169
TX: 0x119 = ff1ff4118bc5
TX: 0x109 = 00600080000000e7
TX: 0x199 = 2f7d200004ffc0af
TX: 0x169 = a502468c0a0cc1c6
TX: 0x119 = ff1ff4118cc6
TX: 0x109 = 0080008000000007
TX: 0x159 = fbff4fbbff670000
TX: 0x149 = 0026026aaa046ff5
TX: 0x129 = 000000206096
TX: 0x1A9 = 00000c60a4
🎯 RADAR STATUS (0x300): State=9, Scan=192, Power=193
TX: 0x199 = 2f7d200004ffd062
TX: 0x169 = a86246988a0dd1c6
TX: 0x119 = ff1ff4118dc7
TX: 0x109 = 00a0008000000027
TX: 0x199 = 2f7d200004ffe028
TX: 0x169 = aaa246a48a0ee125
TX: 0x119 = ff1ff4118ec8
TX: 0x109 = 00c0008000000047
TX: 0x159 = fbff4fcbff770000
TX: 0x149 = 0026026aaa047f05
TX: 0x129 = 0000002070a6
TX: 0x1A9 = 00000c70b4
TX: 0x199 = 2f7d200004fff0e5
TX: 0x169 = ad0247b00a10f127
TX: 0x119 = ff1ff4118fc9
TX: 0x109 = 00e0008000000067
⚠️  ERROR CODE (0x3FF): 72
TX: 0x199 = 2f7d200004ff009a
TX: 0x169 = b04247b80a110183
TX: 0x119 = ff1ff41180ba
TX: 0x109 = 0000008000000087
TX: 0x159 = fbff4fdbff870000
TX: 0x149 = 0026026aaa048f15
TX: 0x129 = 0000002080b6
TX: 0x1A9 = 00000c80c4
TX: 0x209 = 00ff945213038000
TX: 0x219 = 000000000000802c
TX: 0x17C = 0040041831000000
TX: 0x199 = 2f7d200004ff1057
TX: 0x169 = b38247c48a121163
TX: 0x119 = ff1ff41181bb
TX: 0x109 = 00200080000000a7
TX: 0x199 = 2f7d200004ff201d
TX: 0x169 = b6e247cc8a1321df
TX: 0x119 = ff1ff41182bc
TX: 0x109 = 00400080000000c7
TX: 0x159 = fbff4febff970000
TX: 0x149 = 0026026aaa049f25
TX: 0x129 = 0000002090c6
TX: 0x1A9 = 00000c90d4
CAN decode error: non-hexadecimal number found in fromhex() arg at position 15
CAN error: Could not read from serial device
TX: 0x199 = 2f7d200004ff30d0
TX: 0x169 = b82248d80a1531c0
TX: 0x119 = ff1ff41183bd
TX: 0x109 = 00600080000000e7
TX: 0x199 = 2f7d200004ff4089
TX: 0x169 = bb6248e00a16411c
TX: 0x119 = ff1ff41184be
TX: 0x109 = 0080008000000007
TX: 0x159 = fbff4ffbffa70000
TX: 0x149 = 0026026aaa04af35
TX: 0x129 = 00000020a0d6
TX: 0x1A9 = 00000ca0e4
TX: 0x199 = 2f7d200004ff5044
TX: 0x169 = bec248ec0a17519c
TX: 0x119 = ff1ff41185bf
TX: 0x109 = 00a0008000000027
⚠️  ERROR CODE (0x3FF): 80
TX: 0x199 = 2f7d200004ff600e
TX: 0x169 = c02249f88a18619c
TX: 0x119 = ff1ff41186c0
TX: 0x109 = 00c0008000000047
TX: 0x159 = fbff4f0bffb70000
TX: 0x149 = 0026026aaa04bf45
TX: 0x129 = 00000020b0e6
TX: 0x1A9 = 00000cb0f4
TX: 0x199 = 2f7d200004ff70c3
TX: 0x169 = c36249040b1a717e
TX: 0x119 = ff1ff41187c1
TX: 0x109 = 00e0008000000067
TX: 0x199 = 2f7d200004ff80bc
TX: 0x169 = c6c2490c0b1b81fa
TX: 0x119 = ff1ff41188c2
TX: 0x109 = 0000008000000087
TX: 0x159 = fbff4f1bffc70000
TX: 0x149 = 0026026aaa04cf55
TX: 0x129 = 00000020c0f6
TX: 0x1A9 = 00000cc004
🎯 RADAR STATUS (0x300): State=0, Scan=216, Power=129
TX: 0x199 = 2f7d200004ff9071
TX: 0x169 = c9024a188b1c91db
TX: 0x119 = ff1ff41189c3
TX: 0x109 = 00200080000000a7
TX: 0x199 = 2f7d200004ffa03b
TX: 0x169 = cc624a248b1da15b
TX: 0x119 = ff1ff4118ac4
TX: 0x109 = 00400080000000c7
TX: 0x159 = fbff4f2bffd70000
TX: 0x149 = 0026026aaa04df65
TX: 0x129 = 00000020d006
TX: 0x1A9 = 00000cd014
TX: 0x209 = 00ff945213038000
TX: 0x219 = 00000000000090e1
TX: 0x17C = 0040041933000000
TX: 0x2B9 = 1153423745343347
TX: 0x199 = 2f7d200004ffb0f6
TX: 0x169 = cfa24a2c0b1fb138
TX: 0x119 = ff1ff4118bc5
TX: 0x109 = 00600080000000e7
CAN decode error: non-hexadecimal number found in fromhex() arg at position 15
CAN decode error: non-hexadecimal number found in fromhex() arg at position 15
TX: 0x199 = 2f7d200004ffc0af
TX: 0x169 = d2024b380b20c1b9
TX: 0x119 = ff1ff4118cc6
TX: 0x109 = 0080008000000007
TX: 0x159 = fbff4f3bffe70000
TX: 0x149 = 0026026aaa04ef75
TX: 0x129 = 00000020e016
TX: 0x1A9 = 00000ce024
TX: 0x199 = 2f7d200004ffd062
TX: 0x169 = d5424b448b21d199
TX: 0x119 = ff1ff4118dc7
TX: 0x109 = 00a0008000000027
TX: 0x199 = 2f7d200004ffe028
TX: 0x169 = d7a24b500b23e199
TX: 0x119 = ff1ff4118ec8
TX: 0x109 = 00c0008000000047
TX: 0x159 = fbff4f4bfff70000
TX: 0x149 = 0026026aaa04ff85
TX: 0x129 = 00000020f026
TX: 0x1A9 = 00000cf034
CAN decode error: non-hexadecimal number found in fromhex() arg at position 15
CAN error: Could not read from serial device
TX: 0x199 = 2f7d200004fff0e5
TX: 0x169 = dae24b580b24f1f5
TX: 0x119 = ff1ff4118fc9
TX: 0x109 = 00e0008000000067
TX: 0x199 = 2f7d200004ff009a
TX: 0x169 = dd424c640b250176
TX: 0x119 = ff1ff41180ba
TX: 0x109 = 0000008000000087
TX: 0x159 = fbff4f5bff070000
TX: 0x149 = 0026026aaa040f95
TX: 0x129 = 000000200036
TX: 0x1A9 = 00000c0044
TX: 0x199 = 2f7d200004ff1057
TX: 0x169 = df824c6c8b261151
TX: 0x119 = ff1ff41181bb
TX: 0x109 = 00200080000000a7
⚠️  ERROR CODE (0x3FF): 112
TX: 0x199 = 2f7d200004ff201d
TX: 0x169 = e2c24c788b2721b1
TX: 0x119 = ff1ff41182bc
TX: 0x109 = 00400080000000c7
TX: 0x159 = fbff4f6bff170000
TX: 0x149 = 0026026aaa041fa5
TX: 0x129 = 000000201046
TX: 0x1A9 = 00000c1054
TX: 0x199 = 2f7d200004ff30d0
TX: 0x169 = e5224d840b2931b3
TX: 0x119 = ff1ff41183bd
TX: 0x109 = 00600080000000e7
🎯 RADAR STATUS (0x300): State=9, Scan=236, Power=65
TX: 0x199 = 2f7d200004ff4089
TX: 0x169 = e8624d8c0b2a410f
TX: 0x119 = ff1ff41184be
TX: 0x109 = 0080008000000007
TX: 0x159 = fbff4f7bff270000
TX: 0x149 = 0026026aaa042fb5
TX: 0x129 = 000000202056
TX: 0x1A9 = 00000c2064
TX: 0x209 = 00ff945213038000
TX: 0x219 = 000000000000a0ab
TX: 0x17C = 0040041a35000000
TX: 0x199 = 2f7d200004ff5044
TX: 0x169 = ebc24d988b2b510f
TX: 0x119 = ff1ff41185bf
TX: 0x109 = 00a0008000000027
TX: 0x199 = 2f7d200004ff600e
TX: 0x169 = ee024ea08b2c616c
TX: 0x119 = ff1ff41186c0
TX: 0x109 = 00c0008000000047
TX: 0x159 = fbff4f8bff370000
TX: 0x149 = 0026026aaa043fc5
TX: 0x129 = 000000203066
TX: 0x1A9 = 00000c3074
TX: 0x199 = 2f7d200004ff70c3
TX: 0x169 = f0624eac0b2e716c
TX: 0x119 = ff1ff41187c1
TX: 0x109 = 00e0008000000067
⚠️  ERROR CODE (0x3FF): 136
TX: 0x199 = 2f7d200004ff80bc
TX: 0x169 = f3a24eb88b2f814c
TX: 0x119 = ff1ff41188c2
TX: 0x109 = 0000008000000087
TX: 0x159 = fbff4f9bff470000
TX: 0x149 = 0026026aaa044fd5
TX: 0x129 = 000000204076
TX: 0x1A9 = 00000c4084
TX: 0x199 = 2f7d200004ff9071
TX: 0x169 = f6024fc08b3091c9
TX: 0x119 = ff1ff41189c3
TX: 0x109 = 00200080000000a7
🎯 RADAR STATUS (0x300): State=4, Scan=248, Power=65
CAN error: Could not read from serial device
TX: 0x199 = 2f7d200004ffa03b
TX: 0x169 = f9424fcc0b32a1aa
TX: 0x119 = ff1ff4118ac4
TX: 0x109 = 00400080000000c7
TX: 0x159 = fbff4fabff570000
TX: 0x149 = 0026026aaa045fe5
TX: 0x129 = 000000205086
TX: 0x1A9 = 00000c5094
TX: 0x199 = 2f7d200004ffb0f6
TX: 0x169 = fba24fd80b33b129
TX: 0x119 = ff1ff4118bc5
TX: 0x109 = 00600080000000e7
TX: 0x199 = 2f7d200004ffc0af
TX: 0x169 = fee24fe08b34c105
TX: 0x119 = ff1ff4118cc6
TX: 0x109 = 0080008000000007
TX: 0x159 = fbff4fbbff670000
TX: 0x149 = 0026026aaa046ff5
TX: 0x129 = 000000206096
TX: 0x1A9 = 00000c60a4
TX: 0x199 = 2f7d200004ffd062
TX: 0x169 = 014350ec8b35d187
TX: 0x119 = ff1ff4118dc7
TX: 0x109 = 00a0008000000027
⚠️  ERROR CODE (0x3FF): 144
TX: 0x199 = 2f7d200004ffe028
TX: 0x169 = 048350f80b37e168
TX: 0x119 = ff1ff4118ec8
TX: 0x109 = 00c0008000000047
TX: 0x159 = fbff4fcbff770000
TX: 0x149 = 0026026aaa047f05
TX: 0x129 = 0000002070a6
TX: 0x1A9 = 00000c70b4
TX: 0x209 = 00ff945213038000
TX: 0x219 = 000000000000b066
TX: 0x17C = 0040041c38000000
TX: 0x199 = 2f7d200004fff0e5
TX: 0x169 = 07e350040c38f1e9
TX: 0x119 = ff1ff4118fc9
TX: 0x109 = 00e0008000000067
🎯 RADAR STATUS (0x300): State=9, Scan=4, Power=130
TX: 0x199 = 2f7d200004ff009a
TX: 0x169 = 0a23510c8c3901c6
TX: 0x119 = ff1ff41180ba
TX: 0x109 = 0000008000000087
TX: 0x159 = fbff4fdbff870000
TX: 0x149 = 0026026aaa048f15
TX: 0x129 = 0000002080b6
TX: 0x1A9 = 00000c80c4
TX: 0x199 = 2f7d200004ff1057
TX: 0x169 = 0c8351188c3a1145
TX: 0x119 = ff1ff41181bb
TX: 0x109 = 00200080000000a7
TX: 0x199 = 2f7d200004ff201d
TX: 0x169 = 0fc351200c3c2122
TX: 0x119 = ff1ff41182bc
TX: 0x109 = 00400080000000c7
TX: 0x159 = fbff4febff970000
TX: 0x149 = 0026026aaa049f25
TX: 0x129 = 0000002090c6
TX: 0x1A9 = 00000c90d4
⚠️  ERROR CODE (0x3FF): 168
TX: 0x199 = 2f7d200004ff30d0
TX: 0x169 = 1223522c0c3d31a3
TX: 0x119 = ff1ff41183bd
TX: 0x109 = 00600080000000e7
TX: 0x2B9 = 1246313133313035
VIN transmission cycle: 4/7
TX: 0x199 = 2f7d200004ff4089
TX: 0x169 = 156352388c3e4183
TX: 0x119 = ff1ff41184be
TX: 0x109 = 0080008000000007
TX: 0x159 = fbff4ffbffa70000
TX: 0x149 = 0026026aaa04af35
TX: 0x129 = 00000020a0d6
TX: 0x1A9 = 00000ca0e4
RX: 0x300 = 8108215300030003
CAN error: Could not read from serial device
CAN error: Could not read from serial device
CAN decode error: non-hexadecimal number found in fromhex() arg at position 7
CAN error: Could not read from serial device
TX: 0x199 = 2f7d200004ff5044
TX: 0x169 = 17a352408c3f51de
TX: 0x119 = ff1ff41185bf
TX: 0x109 = 00a0008000000027
TX: 0x199 = 2f7d200004ff600e
TX: 0x169 = 1a0353480c4161dc
TX: 0x119 = ff1ff41186c0
TX: 0x109 = 00c0008000000047
TX: 0x159 = fbff4f0bffb70000
TX: 0x149 = 0026026aaa04bf45
TX: 0x129 = 00000020b0e6
TX: 0x1A9 = 00000cb0f4
TX: 0x199 = 2f7d200004ff70c3
TX: 0x169 = 1c4353540c42713b
TX: 0x119 = ff1ff41187c1
TX: 0x109 = 00e0008000000067
⚠️  ERROR CODE (0x3FF): 176
TX: 0x199 = 2f7d200004ff80bc
TX: 0x169 = 1f83535c0c438197
TX: 0x119 = ff1ff41188c2
TX: 0x109 = 0000008000000087
TX: 0x159 = fbff4f1bffc70000
TX: 0x149 = 0026026aaa04cf55
TX: 0x129 = 00000020c0f6
TX: 0x1A9 = 00000cc004
TX: 0x209 = 00ff945213038000
TX: 0x219 = 000000000000c03f
TX: 0x17C = 0040041d3a000000
TX: 0x199 = 2f7d200004ff9071
TX: 0x169 = 22e353688c449197
TX: 0x119 = ff1ff41189c3
TX: 0x109 = 00200080000000a7
🎯 RADAR STATUS (0x300): State=10, Scan=24, Power=130
TX: 0x199 = 2f7d200004ffa03b
TX: 0x169 = 242354708c45a1f3
TX: 0x119 = ff1ff4118ac4
TX: 0x109 = 00400080000000c7
TX: 0x159 = fbff4f2bffd70000
TX: 0x149 = 0026026aaa04df65
TX: 0x129 = 00000020d006
TX: 0x1A9 = 00000cd014
TX: 0x199 = 2f7d200004ffb0f6
TX: 0x169 = 2763547c8c46b153
TX: 0x119 = ff1ff4118bc5
TX: 0x109 = 00600080000000e7
TX: 0x199 = 2f7d200004ffc0af
TX: 0x169 = 2ac354880c48c154
TX: 0x119 = ff1ff4118cc6
TX: 0x109 = 0080008000000007
TX: 0x159 = fbff4f3bffe70000
TX: 0x149 = 0026026aaa04ef75
TX: 0x129 = 00000020e016
TX: 0x1A9 = 00000ce024
TX: 0x199 = 2f7d200004ffd062
TX: 0x169 = 2c0355900c49d1b0
TX: 0x119 = ff1ff4118dc7
TX: 0x109 = 00a0008000000027
⚠️  ERROR CODE (0x3FF): 200
TX: 0x199 = 2f7d200004ffe028
TX: 0x169 = 2f63559c8c4ae1b0
TX: 0x119 = ff1ff4118ec8
TX: 0x109 = 00c0008000000047
TX: 0x159 = fbff4f4bfff70000
TX: 0x149 = 0026026aaa04ff85
TX: 0x129 = 00000020f026
TX: 0x1A9 = 00000cf034
TX: 0x199 = 2f7d200004fff0e5
TX: 0x169 = 32a355a40c4cf18d
TX: 0x119 = ff1ff4118fc9
TX: 0x109 = 00e0008000000067
TX: 0x199 = 2f7d200004ff009a
TX: 0x169 = 340356b00c4d010d
TX: 0x119 = ff1ff41180ba
TX: 0x109 = 0000008000000087
TX: 0x159 = fbff4f5bff070000
TX: 0x149 = 0026026aaa040f95
TX: 0x129 = 000000200036
TX: 0x1A9 = 00000c0044
CAN decode error: non-hexadecimal number found in fromhex() arg at position 15
CAN error: Could not read from serial device
CAN error: Could not read from serial device
CAN error: Could not read from serial device
CAN decode error: non-hexadecimal number found in fromhex() arg at position 15
CAN decode error: invalid literal for int() with base 16: '31t'
CAN error: Could not read from serial device
CAN decode error: non-hexadecimal number found in fromhex() arg at position 15
CAN error: Could not read from serial device
CAN decode error: non-hexadecimal number found in fromhex() arg at position 15
CAN error: Could not read from serial device
CAN error: Could not read from serial device
TX: 0x199 = 2f7d200004ff1057
TX: 0x169 = 374356b80c4e1169
TX: 0x119 = ff1ff41181bb
TX: 0x109 = 00200080000000a7
CAN error: Could not read from serial device
TX: 0x199 = 2f7d200004ff201d
TX: 0x169 = 3aa356c48c4f2169
TX: 0x119 = ff1ff41182bc
TX: 0x109 = 00400080000000c7
TX: 0x159 = fbff4f6bff170000
TX: 0x149 = 0026026aaa041fa5
TX: 0x129 = 000000201046
TX: 0x1A9 = 00000c1054
TX: 0x209 = 00ff945213038000
TX: 0x219 = 000000000000d0f2
TX: 0x17C = 0040041e3c000000
TX: 0x199 = 2f7d200004ff30d0
TX: 0x169 = 3ce356d08c5031c8
TX: 0x119 = ff1ff41183bd
TX: 0x109 = 00600080000000e7
⚠️  ERROR CODE (0x3FF): 208
TX: 0x199 = 2f7d200004ff4089
TX: 0x169 = 3f2357d80c5241a6
TX: 0x119 = ff1ff41184be
TX: 0x109 = 0080008000000007
TX: 0x159 = fbff4f7bff270000
TX: 0x149 = 0026026aaa042fb5
TX: 0x129 = 000000202056
TX: 0x1A9 = 00000c2064
TX: 0x199 = 2f7d200004ff5044
TX: 0x169 = 428357e40c535126
TX: 0x119 = ff1ff41185bf
TX: 0x109 = 00a0008000000027
🎯 RADAR STATUS (0x300): State=10, Scan=44, Power=66
TX: 0x199 = 2f7d200004ff600e
TX: 0x169 = 45e357f08c546126
TX: 0x119 = ff1ff41186c0
TX: 0x109 = 00c0008000000047
TX: 0x159 = fbff4f8bff370000
TX: 0x149 = 0026026aaa043fc5
TX: 0x129 = 000000203066
TX: 0x1A9 = 00000c3074
TX: 0x199 = 2f7d200004ff70c3
TX: 0x169 = 482358f80c567104
TX: 0x119 = ff1ff41187c1
TX: 0x109 = 00e0008000000067
TX: 0x199 = 2f7d200004ff80bc
TX: 0x169 = 4a6358040d578164
TX: 0x119 = ff1ff41188c2
TX: 0x109 = 0000008000000087
TX: 0x159 = fbff4f9bff470000
TX: 0x149 = 0026026aaa044fd5
TX: 0x129 = 000000204076
TX: 0x1A9 = 00000c4084
⚠️  ERROR CODE (0x3FF): 232
TX: 0x199 = 2f7d200004ff9071
TX: 0x169 = 4dc3580c8d589160
TX: 0x119 = ff1ff41189c3
TX: 0x109 = 00200080000000a7
TX: 0x199 = 2f7d200004ffa03b
TX: 0x169 = 500359188d59a1c1
TX: 0x119 = ff1ff4118ac4
TX: 0x109 = 00400080000000c7
TX: 0x159 = fbff4fabff570000
TX: 0x149 = 0026026aaa045fe5
TX: 0x129 = 000000205086
TX: 0x1A9 = 00000c5094
CAN decode error: non-hexadecimal number found in fromhex() arg at position 15
CAN error: Could not read from serial device
CAN decode error: non-hexadecimal number found in fromhex() arg at position 15
CAN error: Could not read from serial device
CAN error: Could not read from serial device
CAN decode error: non-hexadecimal number found in fromhex() arg at position 15
TX: 0x199 = 2f7d200004ffb0f6
TX: 0x169 = 526359208d5ab13c
TX: 0x119 = ff1ff4118bc5
TX: 0x109 = 00600080000000e7
Status: Not Present, VIN: 4/7, Time: 3.4s
CAN error: Could not read from serial device
CAN decode error: non-hexadecimal number found in fromhex() arg at position 15
CAN error: Could not read from serial device
TX: 0x199 = 2f7d200004ffc0af
TX: 0x169 = 55a3592c0d5cc11d
TX: 0x119 = ff1ff4118cc6
TX: 0x109 = 0080008000000007
TX: 0x159 = fbff4fbbff670000
TX: 0x149 = 0026026aaa046ff5
TX: 0x129 = 000000206096
TX: 0x1A9 = 00000c60a4
TX: 0x209 = 00ff945213038000
TX: 0x219 = 000000000000e0b8
TX: 0x17C = 0040041f3e000000
TX: 0x2B9 = 100000000035594a
TX: 0x2A9 = 4a16434110000210
TX: 0x2D9 = 8040830000000000
TX: 0x199 = 2f7d200004ffd062
TX: 0x169 = 58035a340d5dd19a
TX: 0x119 = ff1ff4118dc7
TX: 0x109 = 00a0008000000027
TX: 0x199 = 2f7d200004ffe028
TX: 0x169 = 5a435a408d5ee179
TX: 0x119 = ff1ff4118ec8
TX: 0x109 = 00c0008000000047
TX: 0x159 = fbff4fcbff770000
TX: 0x149 = 0026026aaa047f05
TX: 0x129 = 0000002070a6
TX: 0x1A9 = 00000c70b4
⚠️  ERROR CODE (0x3FF): 240
TX: 0x199 = 2f7d200004fff0e5
TX: 0x169 = 5da35a4c8d5ff1f9
TX: 0x119 = ff1ff4118fc9
TX: 0x109 = 00e0008000000067
TX: 0x199 = 2f7d200004ff009a
TX: 0x169 = 60e35a540d6101d6
TX: 0x119 = ff1ff41180ba
TX: 0x109 = 0000008000000087
TX: 0x159 = fbff4fdbff870000
TX: 0x149 = 0026026aaa048f15
TX: 0x129 = 0000002080b6
TX: 0x1A9 = 00000c80c4
🎯 RADAR STATUS (0x300): State=11, Scan=64, Power=2
TX: 0x199 = 2f7d200004ff1057
TX: 0x169 = 62435b600d621156
TX: 0x119 = ff1ff41181bb
TX: 0x109 = 00200080000000a7
TX: 0x199 = 2f7d200004ff201d
TX: 0x169 = 65835b688d632132
TX: 0x119 = ff1ff41182bc
TX: 0x109 = 00400080000000c7
TX: 0x159 = fbff4febff970000
TX: 0x149 = 0026026aaa049f25
TX: 0x129 = 0000002090c6
TX: 0x1A9 = 00000c90d4
TX: 0x199 = 2f7d200004ff30d0
TX: 0x169 = 68c35b748d643192
TX: 0x119 = ff1ff41183bd
TX: 0x109 = 00600080000000e7
⚠️  ERROR CODE (0x3FF): 8
TX: 0x199 = 2f7d200004ff4089
TX: 0x169 = 6a235c7c0d66418f
TX: 0x119 = ff1ff41184be
TX: 0x109 = 0080008000000007
TX: 0x159 = fbff4ffbffa70000
TX: 0x149 = 0026026aaa04af35
TX: 0x129 = 00000020a0d6
TX: 0x1A9 = 00000ca0e4
TX: 0x199 = 2f7d200004ff5044
TX: 0x169 = 6d635c880d6751ef
TX: 0x119 = ff1ff41185bf
TX: 0x109 = 00a0008000000027
TX: 0x199 = 2f7d200004ff600e
TX: 0x169 = 70c35c908d6861eb
TX: 0x119 = ff1ff41186c0
TX: 0x109 = 00c0008000000047
TX: 0x159 = fbff4f0bffb70000
TX: 0x149 = 0026026aaa04bf45
TX: 0x129 = 00000020b0e6
TX: 0x1A9 = 00000cb0f4
TX: 0x209 = 00ff945213038000
TX: 0x219 = 000000000000f075
TX: 0x17C = 0040042040000000
🎯 RADAR STATUS (0x300): State=5, Scan=80, Power=2
CAN error: Could not read from serial device
TX: 0x199 = 2f7d200004ff70c3
TX: 0x169 = 72035d9c8d69714b
TX: 0x119 = ff1ff41187c1
TX: 0x109 = 00e0008000000067
TX: 0x199 = 2f7d200004ff80bc
TX: 0x169 = 75635da80d6b814c
TX: 0x119 = ff1ff41188c2
TX: 0x109 = 0000008000000087
TX: 0x159 = fbff4f1bffc70000
TX: 0x149 = 0026026aaa04cf55
TX: 0x129 = 00000020c0f6
TX: 0x1A9 = 00000cc004
TX: 0x199 = 2f7d200004ff9071
TX: 0x169 = 78a35db00d6c91a8
TX: 0x119 = ff1ff41189c3
TX: 0x109 = 00200080000000a7
⚠️  ERROR CODE (0x3FF): 16
TX: 0x199 = 2f7d200004ffa03b
TX: 0x169 = 7b035ebc8d6da1a9
TX: 0x119 = ff1ff4118ac4
TX: 0x109 = 00400080000000c7
TX: 0x159 = fbff4f2bffd70000
TX: 0x149 = 0026026aaa04df65
TX: 0x129 = 00000020d006
TX: 0x1A9 = 00000cd014
TX: 0x199 = 2f7d200004ffb0f6
TX: 0x169 = 7d435ec80d6fb189
TX: 0x119 = ff1ff4118bc5
TX: 0x109 = 00600080000000e7
TX: 0x199 = 2f7d200004ffc0af
TX: 0x169 = 80a35ed00d70c105
TX: 0x119 = ff1ff4118cc6
TX: 0x109 = 0080008000000007
TX: 0x159 = fbff4f3bffe70000
TX: 0x149 = 0026026aaa04ef75
TX: 0x129 = 00000020e016
TX: 0x1A9 = 00000ce024
🎯 RADAR STATUS (0x300): State=0, Scan=92, Power=2
TX: 0x199 = 2f7d200004ffd062
TX: 0x169 = 83035fdc8d71d106
TX: 0x119 = ff1ff4118dc7
TX: 0x109 = 00a0008000000027
TX: 0x199 = 2f7d200004ffe028
TX: 0x169 = 86435fe88d72e166
TX: 0x119 = ff1ff4118ec8
TX: 0x109 = 00c0008000000047
TX: 0x159 = fbff4f4bfff70000
TX: 0x149 = 0026026aaa04ff85
TX: 0x129 = 00000020f026
TX: 0x1A9 = 00000cf034
TX: 0x199 = 2f7d200004fff0e5
TX: 0x169 = 88835ff00d74f142
TX: 0x119 = ff1ff4118fc9
TX: 0x109 = 00e0008000000067
CAN error: Could not read from serial device
CAN error: Could not read from serial device
CAN decode error: non-hexadecimal number found in fromhex() arg at position 15
⚠️  ERROR CODE (0x3FF): 40 (UNKNOWN) payload=322800
TX: 0x199 = 2f7d200004ff009a
TX: 0x169 = 8be35ffc0d7501c2
TX: 0x119 = ff1ff41180ba
TX: 0x109 = 0000008000000087
TX: 0x159 = fbff4f5bff070000
TX: 0x149 = 0026026aaa040f95
TX: 0x129 = 000000200036
TX: 0x1A9 = 00000c0044
TX: 0x209 = 00ff945213038000
TX: 0x219 = 000000000000000a
TX: 0x17C = 0040042142000000
TX: 0x199 = 2f7d200004ff1057
TX: 0x169 = 8e2360040e761120
TX: 0x119 = ff1ff41181bb
TX: 0x109 = 00200080000000a7
TX: 0x199 = 2f7d200004ff201d
TX: 0x169 = 908360108e77211f
TX: 0x119 = ff1ff41182bc
TX: 0x109 = 00400080000000c7
TX: 0x159 = fbff4f6bff170000
TX: 0x149 = 0026026aaa041fa5
TX: 0x129 = 000000201046
TX: 0x1A9 = 00000c1054
CAN error: Could not read from serial device
CAN error: Could not read from serial device
CAN decode error: non-hexadecimal number found in fromhex() arg at position 15
CAN error: Could not read from serial device
TX: 0x199 = 2f7d200004ff30d0
TX: 0x169 = 93c360180e7931fc
TX: 0x119 = ff1ff41183bd
TX: 0x109 = 00600080000000e7
TX: 0x199 = 2f7d200004ff4089
TX: 0x169 = 962361240e7a417d
TX: 0x119 = ff1ff41184be
TX: 0x109 = 0080008000000007
TX: 0x159 = fbff4f7bff270000
TX: 0x149 = 0026026aaa042fb5
TX: 0x129 = 000000202056
TX: 0x1A9 = 00000c2064
TX: 0x199 = 2f7d200004ff5044
TX: 0x169 = 996361308e7b515d
TX: 0x119 = ff1ff41185bf
TX: 0x109 = 00a0008000000027
TX: 0x2B9 = 1153423745343347
⚠️  ERROR CODE (0x3FF): 48
TX: 0x199 = 2f7d200004ff600e
TX: 0x169 = 9bc361388e7c61d8
TX: 0x119 = ff1ff41186c0
TX: 0x109 = 00c0008000000047
TX: 0x159 = fbff4f8bff370000
TX: 0x149 = 0026026aaa043fc5
TX: 0x129 = 000000203066
TX: 0x1A9 = 00000c3074
TX: 0x199 = 2f7d200004ff70c3
TX: 0x169 = 9d0362408e7d7134
TX: 0x119 = ff1ff41187c1
TX: 0x109 = 00e0008000000067
🎯 RADAR STATUS (0x300): State=12, Scan=112, Power=2
TX: 0x199 = 2f7d200004ff80bc
TX: 0x169 = a063624c0e7f8135
TX: 0x119 = ff1ff41188c2
TX: 0x109 = 0000008000000087
TX: 0x159 = fbff4f9bff470000
TX: 0x149 = 0026026aaa044fd5
TX: 0x129 = 000000204076
TX: 0x1A9 = 00000c4084
TX: 0x199 = 2f7d200004ff9071
TX: 0x169 = a3a362588e809115
TX: 0x119 = ff1ff41189c3
TX: 0x109 = 00200080000000a7
TX: 0x199 = 2f7d200004ffa03b
TX: 0x169 = a60363608e81a192
TX: 0x119 = ff1ff4118ac4
TX: 0x109 = 00400080000000c7
TX: 0x159 = fbff4fabff570000
TX: 0x149 = 0026026aaa045fe5
TX: 0x129 = 000000205086
TX: 0x1A9 = 00000c5094
TX: 0x209 = 00ff945213038000
TX: 0x219 = 00000000000010c7
TX: 0x17C = 0040042244000000
TX: 0x199 = 2f7d200004ffb0f6
TX: 0x169 = a843636c0e83b172
TX: 0x119 = ff1ff4118bc5
TX: 0x109 = 00600080000000e7
⚠️  ERROR CODE (0x3FF): 72
TX: 0x199 = 2f7d200004ffc0af
TX: 0x169 = aba363740e84c1ee
TX: 0x119 = ff1ff4118cc6
TX: 0x109 = 0080008000000007
TX: 0x159 = fbff4fbbff670000
TX: 0x149 = 0026026aaa046ff5
TX: 0x129 = 000000206096
TX: 0x1A9 = 00000c60a4
TX: 0x199 = 2f7d200004ffd062
TX: 0x169 = aee363808e85d1ce
TX: 0x119 = ff1ff4118dc7
TX: 0x109 = 00a0008000000027
CAN decode error: non-hexadecimal number found in fromhex() arg at position 15
CAN error: Could not read from serial device
CAN decode error: non-hexadecimal number found in fromhex() arg at position 15
CAN error: Could not read from serial device
TX: 0x199 = 2f7d200004ffe028
TX: 0x169 = b143648c0e87e1d0
TX: 0x119 = ff1ff4118ec8
TX: 0x109 = 00c0008000000047
TX: 0x159 = fbff4fcbff770000
TX: 0x149 = 0026026aaa047f05
TX: 0x129 = 0000002070a6
TX: 0x1A9 = 00000c70b4
TX: 0x199 = 2f7d200004fff0e5
TX: 0x169 = b38364940e88f12b
TX: 0x119 = ff1ff4118fc9
TX: 0x109 = 00e0008000000067
TX: 0x199 = 2f7d200004ff009a
TX: 0x169 = b6e364a08e89012b
TX: 0x119 = ff1ff41180ba
TX: 0x109 = 0000008000000087
TX: 0x159 = fbff4fdbff870000
TX: 0x149 = 0026026aaa048f15
TX: 0x129 = 0000002080b6
TX: 0x1A9 = 00000c80c4
TX: 0x199 = 2f7d200004ff1057
TX: 0x169 = b92365a88e8a1188
⚠️  ERROR CODE (0x3FF): 80
TX: 0x119 = ff1ff41181bb
TX: 0x109 = 00200080000000a7
TX: 0x199 = 2f7d200004ff201d
TX: 0x169 = bb8365b40e8c2188
TX: 0x119 = ff1ff41182bc
TX: 0x109 = 00400080000000c7
TX: 0x159 = fbff4febff970000
TX: 0x149 = 0026026aaa049f25
TX: 0x129 = 0000002090c6
TX: 0x1A9 = 00000c90d4
🎯 RADAR STATUS (0x300): State=9, Scan=132, Power=2
TX: 0x199 = 2f7d200004ff30d0
TX: 0x169 = bee365c00e8d3108
TX: 0x119 = ff1ff41183bd
TX: 0x109 = 00600080000000e7
TX: 0x199 = 2f7d200004ff4089
TX: 0x169 = c12366c88e8e41e5
TX: 0x119 = ff1ff41184be
TX: 0x109 = 0080008000000007
TX: 0x159 = fbff4ffbffa70000
TX: 0x149 = 0026026aaa04af35
TX: 0x129 = 00000020a0d6
TX: 0x1A9 = 00000ca0e4
TX: 0x209 = 00ff945213038000
TX: 0x219 = 000000000000208d
TX: 0x17C = 0040042346000000
TX: 0x199 = 2f7d200004ff5044
TX: 0x169 = c36366d08e8f5140
TX: 0x119 = ff1ff41185bf
TX: 0x109 = 00a0008000000027
TX: 0x199 = 2f7d200004ff600e
TX: 0x169 = c6c366dc8e9061c0
TX: 0x119 = ff1ff41186c0
TX: 0x109 = 00c0008000000047
TX: 0x159 = fbff4f0bffb70000
TX: 0x149 = 0026026aaa04bf45
TX: 0x129 = 00000020b0e6
TX: 0x1A9 = 00000cb0f4
⚠️  ERROR CODE (0x3FF): 104
TX: 0x199 = 2f7d200004ff70c3
TX: 0x169 = c80367e40e92719d
TX: 0x119 = ff1ff41187c1
TX: 0x109 = 00e0008000000067
TX: 0x199 = 2f7d200004ff80bc
TX: 0x169 = cb6367f00e93811d
TX: 0x119 = ff1ff41188c2
TX: 0x109 = 0000008000000087
TX: 0x159 = fbff4f1bffc70000
TX: 0x149 = 0026026aaa04cf55
TX: 0x129 = 00000020c0f6
TX: 0x1A9 = 00000cc004
🎯 RADAR STATUS (0x300): State=6, Scan=144, Power=2
CAN error: Could not read from serial device
TX: 0x199 = 2f7d200004ff9071
TX: 0x169 = cea367fc8e9491fd
TX: 0x119 = ff1ff41189c3
TX: 0x109 = 00200080000000a7
TX: 0x199 = 2f7d200004ffa03b
TX: 0x169 = d00368040f96a1fb
TX: 0x119 = ff1ff4118ac4
TX: 0x109 = 00400080000000c7
TX: 0x159 = fbff4f2bffd70000
TX: 0x149 = 0026026aaa04df65
TX: 0x129 = 00000020d006
TX: 0x1A9 = 00000cd014
TX: 0x199 = 2f7d200004ffb0f6
TX: 0x169 = d34368100f97b15b
TX: 0x119 = ff1ff4118bc5
TX: 0x109 = 00600080000000e7
⚠️  ERROR CODE (0x3FF): 112
TX: 0x199 = 2f7d200004ffc0af
TX: 0x169 = d6a368188f98c157
TX: 0x119 = ff1ff4118cc6
TX: 0x109 = 0080008000000007
TX: 0x159 = fbff4f3bffe70000
TX: 0x149 = 0026026aaa04ef75
TX: 0x129 = 00000020e016
TX: 0x1A9 = 00000ce024
TX: 0x199 = 2f7d200004ffd062
TX: 0x169 = d9e368248f99d1b7
TX: 0x119 = ff1ff4118dc7
TX: 0x109 = 00a0008000000027
🎯 RADAR STATUS (0x300): State=10, Scan=156, Power=2
TX: 0x199 = 2f7d200004ffe028
TX: 0x169 = db4369300f9be1b8
TX: 0x119 = ff1ff4118ec8
TX: 0x109 = 00c0008000000047
TX: 0x159 = fbff4f4bfff70000
TX: 0x149 = 0026026aaa04ff85
TX: 0x129 = 00000020f026
TX: 0x1A9 = 00000cf034
TX: 0x209 = 00ff945213038000
TX: 0x219 = 0000000000003040
TX: 0x17C = 0040042448000000
TX: 0x2B9 = 1246313133313035
VIN transmission cycle: 5/7
TX: 0x199 = 2f7d200004fff0e5
TX: 0x169 = de8369380f9cf114
TX: 0x119 = ff1ff4118fc9
TX: 0x109 = 00e0008000000067
TX: 0x199 = 2f7d200004ff009a
TX: 0x169 = e0e369448f9d0113
TX: 0x119 = ff1ff41180ba
TX: 0x109 = 0000008000000087
TX: 0x159 = fbff4f5bff070000
TX: 0x149 = 0026026aaa040f95
TX: 0x129 = 000000200036
TX: 0x1A9 = 00000c0044
TX: 0x199 = 2f7d200004ff1057
⚠️  ERROR CODE (0x3FF): 136
TX: 0x169 = e3236a4c8f9e1170
TX: 0x119 = ff1ff41181bb
TX: 0x109 = 00200080000000a7
TX: 0x199 = 2f7d200004ff201d
TX: 0x169 = e6836a580fa02171
TX: 0x119 = ff1ff41182bc
TX: 0x109 = 00400080000000c7
TX: 0x159 = fbff4f6bff170000
TX: 0x149 = 0026026aaa041fa5
TX: 0x129 = 000000201046
TX: 0x1A9 = 00000c1054
TX: 0x199 = 2f7d200004ff30d0
TX: 0x169 = e8c36a600fa131cc
TX: 0x119 = ff1ff41183bd
TX: 0x109 = 00600080000000e7
TX: 0x199 = 2f7d200004ff4089
TX: 0x169 = ea036b680fa24128
TX: 0x119 = ff1ff41184be
RX: 0x300 = 36a4021525003000
TX: 0x109 = 0080008000000007
TX: 0x159 = fbff4f7bff270000
TX: 0x149 = 0026026aaa042fb5
TX: 0x129 = 000000202056
TX: 0x1A9 = 00000c2064
CAN error: Could not read from serial device
CAN error: Could not read from serial device
CAN error: Could not read from serial device
CAN decode error: non-hexadecimal number found in fromhex() arg at position 15
CAN error: Could not read from serial device
CAN decode error: non-hexadecimal number found in fromhex() arg at position 15
CAN error: Could not read from serial device
CAN error: Could not read from serial device
CAN error: Could not read from serial device
CAN decode error: non-hexadecimal number found in fromhex() arg at position 15
CAN error: Could not read from serial device
TX: 0x199 = 2f7d200004ff5044
TX: 0x169 = ed436b700fa35184
TX: 0x119 = ff1ff41185bf
TX: 0x109 = 00a0008000000027
TX: 0x199 = 2f7d200004ff600e
TX: 0x169 = efa36b7c8fa46183
TX: 0x119 = ff1ff41186c0
TX: 0x109 = 00c0008000000047
TX: 0x159 = fbff4f8bff370000
TX: 0x149 = 0026026aaa043fc5
TX: 0x129 = 000000203066
TX: 0x1A9 = 00000c3074
TX: 0x199 = 2f7d200004ff70c3
TX: 0x169 = f2e36b848fa571df
TX: 0x119 = ff1ff41187c1
TX: 0x109 = 00e0008000000067
⚠️  ERROR CODE (0x3FF): 144
TX: 0x199 = 2f7d200004ff80bc
TX: 0x169 = f5436c900fa781e1
TX: 0x119 = ff1ff41188c2
TX: 0x109 = 0000008000000087
TX: 0x159 = fbff4f9bff470000
TX: 0x149 = 0026026aaa044fd5
TX: 0x129 = 000000204076
TX: 0x1A9 = 00000c4084
TX: 0x209 = 00ff945213038000
TX: 0x219 = 0000000000004019
TX: 0x17C = 004004254a000000
TX: 0x199 = 2f7d200004ff9071
TX: 0x169 = f7836c9c8fa891c0
TX: 0x119 = ff1ff41189c3
TX: 0x109 = 00200080000000a7
🎯 RADAR STATUS (0x300): State=9, Scan=176, Power=66
TX: 0x199 = 2f7d200004ffa03b
TX: 0x169 = fae36ca48fa9a13c
TX: 0x119 = ff1ff4118ac4
TX: 0x109 = 00400080000000c7
TX: 0x159 = fbff4fabff570000
TX: 0x149 = 0026026aaa045fe5
TX: 0x129 = 000000205086
TX: 0x1A9 = 00000c5094
TX: 0x199 = 2f7d200004ffb0f6
TX: 0x169 = fc436db00fabb13d
TX: 0x119 = ff1ff4118bc5
TX: 0x109 = 00600080000000e7
TX: 0x199 = 2f7d200004ffc0af
TX: 0x169 = ff836db80facc199
TX: 0x119 = ff1ff4118cc6
TX: 0x109 = 0080008000000007
TX: 0x159 = fbff4fbbff670000
TX: 0x149 = 0026026aaa046ff5
TX: 0x129 = 000000206096
TX: 0x1A9 = 00000c60a4
⚠️  ERROR CODE (0x3FF): 168
TX: 0x199 = 2f7d200004ffd062
TX: 0x169 = 02c46dc48fadd17a
TX: 0x119 = ff1ff4118dc7
TX: 0x109 = 00a0008000000027
TX: 0x199 = 2f7d200004ffe028
TX: 0x169 = 04246ecc8faee1f6
TX: 0x119 = ff1ff4118ec8
TX: 0x109 = 00c0008000000047
TX: 0x159 = fbff4fcbff770000
TX: 0x149 = 0026026aaa047f05
TX: 0x129 = 0000002070a6
TX: 0x1A9 = 00000c70b4
CAN error: Could not read from serial device
TX: 0x199 = 2f7d200004fff0e5
TX: 0x169 = 07646ed80fb0f1d7
TX: 0x119 = ff1ff4118fc9
TX: 0x109 = 00e0008000000067
TX: 0x199 = 2f7d200004ff009a
TX: 0x169 = 09c46ee00fb10152
TX: 0x119 = ff1ff41180ba
TX: 0x109 = 0000008000000087
TX: 0x159 = fbff4fdbff870000
TX: 0x149 = 0026026aaa048f15
TX: 0x129 = 0000002080b6
TX: 0x1A9 = 00000c80c4
TX: 0x199 = 2f7d200004ff1057
TX: 0x169 = 0b046fe80fb211ae
TX: 0x119 = ff1ff41181bb
TX: 0x109 = 00200080000000a7
TX: 0x199 = 2f7d200004ff201d
TX: 0x169 = 0e446ff48fb3218e
TX: 0x119 = ff1ff41182bc
TX: 0x109 = 00400080000000c7
TX: 0x159 = fbff4febff970000
TX: 0x149 = 0026026aaa049f25
TX: 0x129 = 0000002090c6
TX: 0x1A9 = 00000c90d4
TX: 0x209 = 00ff945213038000
TX: 0x219 = 00000000000050d4
TX: 0x17C = 004004264c000000
⚠️  ERROR CODE (0x3FF): 176
TX: 0x199 = 2f7d200004ff30d0
TX: 0x169 = 11a46ffc8fb4310a
TX: 0x119 = ff1ff41183bd
TX: 0x109 = 00600080000000e7
TX: 0x199 = 2f7d200004ff4089
TX: 0x169 = 1304700810b6410c
TX: 0x119 = ff1ff41184be
TX: 0x109 = 0080008000000007
TX: 0x159 = fbff4ffbffa70000
TX: 0x149 = 0026026aaa04af35
TX: 0x129 = 00000020a0d6
TX: 0x1A9 = 00000ca0e4
🎯 RADAR STATUS (0x300): State=10, Scan=196, Power=194
TX: 0x199 = 2f7d200004ff5044
TX: 0x169 = 1644701010b75168
TX: 0x119 = ff1ff41185bf
TX: 0x109 = 00a0008000000027
TX: 0x199 = 2f7d200004ff600e
TX: 0x169 = 1884701810b861c3
TX: 0x119 = ff1ff41186c0
TX: 0x109 = 00c0008000000047
TX: 0x159 = fbff4f0bffb70000
TX: 0x149 = 0026026aaa04bf45
TX: 0x129 = 00000020b0e6
TX: 0x1A9 = 00000cb0f4
TX: 0x199 = 2f7d200004ff70c3
TX: 0x169 = 1be4702490b971c3
TX: 0x119 = ff1ff41187c1
TX: 0x109 = 00e0008000000067
TX: 0x2B9 = 100000000035594a
⚠️  ERROR CODE (0x3FF): 200
TX: 0x199 = 2f7d200004ff80bc
TX: 0x169 = 1d24712c90ba811f
TX: 0x119 = ff1ff41188c2
TX: 0x109 = 0000008000000087
TX: 0x159 = fbff4f1bffc70000
TX: 0x149 = 0026026aaa04cf55
TX: 0x129 = 00000020c0f6
TX: 0x1A9 = 00000cc004
TX: 0x199 = 2f7d200004ff9071
TX: 0x169 = 2084713810bc9120
TX: 0x119 = ff1ff41189c3
TX: 0x109 = 00200080000000a7
TX: 0x199 = 2f7d200004ffa03b
TX: 0x169 = 23c4714490bda100
TX: 0x119 = ff1ff4118ac4
TX: 0x109 = 00400080000000c7
TX: 0x159 = fbff4f2bffd70000
TX: 0x149 = 0026026aaa04df65
TX: 0x129 = 00000020d006
TX: 0x1A9 = 00000cd014
CAN error: Could not read from serial device
CAN error: Could not read from serial device
TX: 0x199 = 2f7d200004ffb0f6
TX: 0x169 = 2524724c90beb17c
TX: 0x119 = ff1ff4118bc5
TX: 0x109 = 00600080000000e7
TX: 0x199 = 2f7d200004ffc0af
TX: 0x169 = 2864725490bfc1d8
TX: 0x119 = ff1ff4118cc6
TX: 0x109 = 0080008000000007
TX: 0x159 = fbff4f3bffe70000
TX: 0x149 = 0026026aaa04ef75
TX: 0x129 = 00000020e016
TX: 0x1A9 = 00000ce024
TX: 0x209 = 00ff945213038000
TX: 0x219 = 000000000000609e
TX: 0x17C = 004004274e000000
TX: 0x199 = 2f7d200004ffd062
TX: 0x169 = 2aa4726010c1d1b8
TX: 0x119 = ff1ff4118dc7
TX: 0x109 = 00a0008000000027
⚠️  ERROR CODE (0x3FF): 208
TX: 0x199 = 2f7d200004ffe028
TX: 0x169 = 2c04736810c2e134
TX: 0x119 = ff1ff4118ec8
TX: 0x109 = 00c0008000000047
TX: 0x159 = fbff4f4bfff70000
TX: 0x149 = 0026026aaa04ff85
TX: 0x129 = 00000020f026
TX: 0x1A9 = 00000cf034
TX: 0x199 = 2f7d200004fff0e5
TX: 0x169 = 2f44737490c3f114
TX: 0x119 = ff1ff4118fc9
TX: 0x109 = 00e0008000000067
TX: 0x199 = 2f7d200004ff009a
TX: 0x169 = 32a4737c90c40190
TX: 0x119 = ff1ff41180ba
TX: 0x109 = 0000008000000087
TX: 0x159 = fbff4f5bff070000
TX: 0x149 = 0026026aaa040f95
TX: 0x129 = 000000200036
TX: 0x1A9 = 00000c0044
🎯 RADAR STATUS (0x300): State=0, Scan=220, Power=194
TX: 0x199 = 2f7d200004ff1057
TX: 0x169 = 3504748810c61192
TX: 0x119 = ff1ff41181bb
TX: 0x109 = 00200080000000a7
TX: 0x199 = 2f7d200004ff201d
TX: 0x169 = 3744749490c72171
TX: 0x119 = ff1ff41182bc
TX: 0x109 = 00400080000000c7
TX: 0x159 = fbff4f6bff170000
TX: 0x149 = 0026026aaa041fa5
TX: 0x129 = 000000201046
TX: 0x1A9 = 00000c1054
TX: 0x199 = 2f7d200004ff30d0
TX: 0x169 = 3aa4749c90c831ed
TX: 0x119 = ff1ff41183bd
TX: 0x109 = 00600080000000e7
⚠️  ERROR CODE (0x3FF): 232
TX: 0x199 = 2f7d200004ff4089
TX: 0x169 = 3ce474a810ca41cd
TX: 0x119 = ff1ff41184be
TX: 0x109 = 0080008000000007
TX: 0x159 = fbff4f7bff270000
TX: 0x149 = 0026026aaa042fb5
TX: 0x129 = 000000202056
TX: 0x1A9 = 00000c2064
TX: 0x199 = 2f7d200004ff5044
TX: 0x169 = 3f4475b010cb514a
TX: 0x119 = ff1ff41185bf
TX: 0x109 = 00a0008000000027
TX: 0x199 = 2f7d200004ff600e
TX: 0x169 = 428475bc90cc612a
TX: 0x119 = ff1ff41186c0
TX: 0x109 = 00c0008000000047
TX: 0x159 = fbff4f8bff370000
TX: 0x149 = 0026026aaa043fc5
TX: 0x129 = 000000203066
TX: 0x1A9 = 00000c3074
TX: 0x209 = 00ff945213038000
TX: 0x219 = 0000000000007053
TX: 0x17C = 0040042850000000
CAN error: Could not read from serial device
CAN error: Could not read from serial device
CAN error: Could not read from serial device
TX: 0x199 = 2f7d200004ff70c3
TX: 0x169 = 44e475c490cd71a5
TX: 0x119 = ff1ff41187c1
TX: 0x109 = 00e0008000000067
TX: 0x199 = 2f7d200004ff80bc
TX: 0x169 = 474476d010cf81a7
TX: 0x119 = ff1ff41188c2
TX: 0x109 = 0000008000000087
TX: 0x159 = fbff4f9bff470000
TX: 0x149 = 0026026aaa044fd5
TX: 0x129 = 000000204076
TX: 0x1A9 = 00000c4084
TX: 0x199 = 2f7d200004ff9071
TX: 0x169 = 498476d810d09102
TX: 0x119 = ff1ff41189c3
TX: 0x109 = 00200080000000a7
⚠️  ERROR CODE (0x3FF): 240
TX: 0x199 = 2f7d200004ffa03b
TX: 0x169 = 4cc476e490d1a1e2
TX: 0x119 = ff1ff4118ac4
TX: 0x109 = 00400080000000c7
TX: 0x159 = fbff4fabff570000
TX: 0x149 = 0026026aaa045fe5
TX: 0x129 = 000000205086
TX: 0x1A9 = 00000c5094
TX: 0x199 = 2f7d200004ffb0f6
TX: 0x169 = 4e2477ec90d2b15e
TX: 0x119 = ff1ff4118bc5
TX: 0x109 = 00600080000000e7
TX: 0x199 = 2f7d200004ffc0af
TX: 0x169 = 518477f810d4c15f
TX: 0x119 = ff1ff4118cc6
TX: 0x109 = 0080008000000007
🎯 RADAR STATUS (0x300): State=10, Scan=240, Power=194
TX: 0x159 = fbff4fbbff670000
TX: 0x149 = 0026026aaa046ff5
TX: 0x129 = 000000206096
TX: 0x1A9 = 00000c60a4
TX: 0x199 = 2f7d200004ffd062
TX: 0x169 = 53c4770011d5d1bb
TX: 0x119 = ff1ff4118dc7
TX: 0x109 = 00a0008000000027
TX: 0x199 = 2f7d200004ffe028
TX: 0x169 = 5604780891d6e198
TX: 0x119 = ff1ff4118ec8
TX: 0x109 = 00c0008000000047
TX: 0x159 = fbff4fcbff770000
TX: 0x149 = 0026026aaa047f05
TX: 0x129 = 0000002070a6
TX: 0x1A9 = 00000c70b4
TX: 0x199 = 2f7d200004fff0e5
TX: 0x169 = 5964781491d7f118
TX: 0x119 = ff1ff4118fc9
TX: 0x109 = 00e0008000000067
Status: Not Present, VIN: 5/7, Time: 4.5s
⚠️  ERROR CODE (0x3FF): 8
TX: 0x199 = 2f7d200004ff009a
TX: 0x169 = 5ba4781c11d901f4
TX: 0x119 = ff1ff41180ba
TX: 0x109 = 0000008000000087
TX: 0x159 = fbff4fdbff870000
TX: 0x149 = 0026026aaa048f15
TX: 0x129 = 0000002080b6
TX: 0x1A9 = 00000c80c4
TX: 0x209 = 00ff945213038000
TX: 0x219 = 000000000000802c
TX: 0x17C = 0040042952000000
TX: 0x2B9 = 1153423745343347
TX: 0x2A9 = 4a16434110000210
TX: 0x2D9 = 8040830000000000
TX: 0x199 = 2f7d200004ff1057
TX: 0x169 = 5d04792811da1174
TX: 0x119 = ff1ff41181bb
TX: 0x109 = 00200080000000a7
TX: 0x199 = 2f7d200004ff201d
TX: 0x169 = 6044793091db2150
TX: 0x119 = ff1ff41182bc
TX: 0x109 = 00400080000000c7
TX: 0x159 = fbff4febff970000
TX: 0x149 = 0026026aaa049f25
TX: 0x129 = 0000002090c6
TX: 0x1A9 = 00000c90d4
CAN decode error: non-hexadecimal number found in fromhex() arg at position 15
CAN error: Could not read from serial device
CAN error: Could not read from serial device
TX: 0x199 = 2f7d200004ff30d0
TX: 0x169 = 63a4793c91dc31d0
TX: 0x119 = ff1ff41183bd
TX: 0x109 = 00600080000000e7
TX: 0x199 = 2f7d200004ff4089
TX: 0x169 = 65e4794411de41ac
TX: 0x119 = ff1ff41184be
TX: 0x109 = 0080008000000007
TX: 0x159 = fbff4ffbffa70000
TX: 0x149 = 0026026aaa04af35
TX: 0x129 = 00000020a0d6
TX: 0x1A9 = 00000ca0e4
TX: 0x199 = 2f7d200004ff5044
TX: 0x169 = 68447a5011df512d
TX: 0x119 = ff1ff41185bf
TX: 0x109 = 00a0008000000027
⚠️  ERROR CODE (0x3FF): 16
TX: 0x199 = 2f7d200004ff600e
TX: 0x169 = 6a847a5891e06108
TX: 0x119 = ff1ff41186c0
TX: 0x109 = 00c0008000000047
TX: 0x159 = fbff4f0bffb70000
TX: 0x149 = 0026026aaa04bf45
TX: 0x129 = 00000020b0e6
TX: 0x1A9 = 00000cb0f4
TX: 0x199 = 2f7d200004ff70c3
TX: 0x169 = 6de47a6091e17184
TX: 0x119 = ff1ff41187c1
TX: 0x109 = 00e0008000000067
🎯 RADAR STATUS (0x300): State=10, Scan=4, Power=195
TX: 0x199 = 2f7d200004ff80bc
TX: 0x169 = 6f247b6c91e281e4
TX: 0x119 = ff1ff41188c2
TX: 0x109 = 0000008000000087
TX: 0x159 = fbff4f1bffc70000
TX: 0x149 = 0026026aaa04cf55
TX: 0x129 = 00000020c0f6
TX: 0x1A9 = 00000cc004
TX: 0x199 = 2f7d200004ff9071
TX: 0x169 = 71647b7411e491c0
TX: 0x119 = ff1ff41189c3
TX: 0x109 = 00200080000000a7
TX: 0x199 = 2f7d200004ffa03b
TX: 0x169 = 74c47b7c11e5a13c
TX: 0x119 = ff1ff4118ac4
TX: 0x109 = 00400080000000c7
TX: 0x159 = fbff4f2bffd70000
TX: 0x149 = 0026026aaa04df65
TX: 0x129 = 00000020d006
TX: 0x1A9 = 00000cd014
TX: 0x209 = 00ff945213038000
TX: 0x219 = 00000000000090e1
TX: 0x17C = 0040042a54000000
TX: 0x199 = 2f7d200004ffb0f6
TX: 0x169 = 76047c8891e6b11c
TX: 0x119 = ff1ff4118bc5
TX: 0x109 = 00600080000000e7
⚠️  ERROR CODE (0x3FF): 40
TX: 0x199 = 2f7d200004ffc0af
TX: 0x169 = 79647c9091e7c198
TX: 0x119 = ff1ff4118cc6
TX: 0x109 = 0080008000000007
TX: 0x159 = fbff4f3bffe70000
TX: 0x149 = 0026026aaa04ef75
TX: 0x129 = 00000020e016
TX: 0x1A9 = 00000ce024
TX: 0x199 = 2f7d200004ffd062
TX: 0x169 = 7ba47c9c11e9d178
TX: 0x119 = ff1ff4118dc7
TX: 0x109 = 00a0008000000027
🎯 RADAR STATUS (0x300): State=6, Scan=16, Power=195
CAN error: Could not read from serial device
TX: 0x199 = 2f7d200004ffe028
TX: 0x169 = 7e047da411eae1f5
TX: 0x119 = ff1ff4118ec8
TX: 0x109 = 00c0008000000047
TX: 0x159 = fbff4f4bfff70000
TX: 0x149 = 0026026aaa04ff85
TX: 0x129 = 00000020f026
TX: 0x1A9 = 00000cf034
TX: 0x199 = 2f7d200004fff0e5
TX: 0x169 = 80447db091ebf1d4
TX: 0x119 = ff1ff4118fc9
TX: 0x109 = 00e0008000000067
TX: 0x199 = 2f7d200004ff009a
TX: 0x169 = 83a47db891ec0150
TX: 0x119 = ff1ff41180ba
TX: 0x109 = 0000008000000087
TX: 0x159 = fbff4f5bff070000
TX: 0x149 = 0026026aaa040f95
TX: 0x129 = 000000200036
TX: 0x1A9 = 00000c0044
⚠️  ERROR CODE (0x3FF): 48
TX: 0x199 = 2f7d200004ff1057
TX: 0x169 = 85e47dc411ee1130
TX: 0x119 = ff1ff41181bb
TX: 0x109 = 00200080000000a7
TX: 0x199 = 2f7d200004ff201d
TX: 0x169 = 88447ecc11ef21ad
TX: 0x119 = ff1ff41182bc
TX: 0x109 = 00400080000000c7
TX: 0x159 = fbff4f6bff170000
TX: 0x149 = 0026026aaa041fa5
TX: 0x129 = 000000201046
TX: 0x1A9 = 00000c1054
🎯 RADAR STATUS (0x300): State=11, Scan=24, Power=131
TX: 0x199 = 2f7d200004ff30d0
TX: 0x169 = 8a847ed491f03188
TX: 0x119 = ff1ff41183bd
TX: 0x109 = 00600080000000e7
TX: 0x199 = 2f7d200004ff4089
TX: 0x169 = 8de47ee091f14108
TX: 0x119 = ff1ff41184be
TX: 0x109 = 0080008000000007
TX: 0x159 = fbff4f7bff270000
TX: 0x149 = 0026026aaa042fb5
TX: 0x129 = 000000202056
TX: 0x1A9 = 00000c2064
TX: 0x209 = 00ff945213038000
TX: 0x219 = 000000000000a0ab
TX: 0x17C = 0040042b56000000
TX: 0x199 = 2f7d200004ff5044
TX: 0x169 = 8f247fe811f351e5
TX: 0x119 = ff1ff41185bf
TX: 0x109 = 00a0008000000027
⚠️  ERROR CODE (0x3FF): 72
TX: 0x199 = 2f7d200004ff600e
TX: 0x169 = 92847ff411f46165
TX: 0x119 = ff1ff41186c0
TX: 0x109 = 00c0008000000047
TX: 0x159 = fbff4f8bff370000
TX: 0x149 = 0026026aaa043fc5
TX: 0x129 = 000000203066
TX: 0x1A9 = 00000c3074
TX: 0x199 = 2f7d200004ff70c3
TX: 0x169 = 94c47ffc91f57140
TX: 0x119 = ff1ff41187c1
TX: 0x109 = 00e0008000000067
TX: 0x199 = 2f7d200004ff80bc
TX: 0x169 = 9724800892f681c2
TX: 0x119 = ff1ff41188c2
TX: 0x109 = 0000008000000087
TX: 0x159 = fbff4f9bff470000
TX: 0x149 = 0026026aaa044fd5
TX: 0x129 = 000000204076
TX: 0x1A9 = 00000c4084
CAN decode error: non-hexadecimal number found in fromhex() arg at position 15
CAN decode error: invalid literal for int() with base 16: 't31'
CAN error: Could not read from serial device
TX: 0x199 = 2f7d200004ff9071
CAN error: Could not read from serial device
TX: 0x169 = 9964801012f8919e
TX: 0x119 = ff1ff41189c3
TX: 0x109 = 00200080000000a7
CAN error: Could not read from serial device
TX: 0x2B9 = 1246313133313035
VIN transmission cycle: 6/7
TX: 0x199 = 2f7d200004ffa03b
TX: 0x169 = 9cc4801812f9a11a
TX: 0x119 = ff1ff4118ac4
TX: 0x109 = 00400080000000c7
TX: 0x159 = fbff4fabff570000
TX: 0x149 = 0026026aaa045fe5
TX: 0x129 = 000000205086
TX: 0x1A9 = 00000c5094
TX: 0x199 = 2f7d200004ffb0f6
TX: 0x169 = 9e24812492fab11a
TX: 0x119 = ff1ff4118bc5
TX: 0x109 = 00600080000000e7
⚠️  ERROR CODE (0x3FF): 80
TX: 0x199 = 2f7d200004ffc0af
TX: 0x169 = a164812c92fbc176
TX: 0x119 = ff1ff4118cc6
TX: 0x109 = 0080008000000007
TX: 0x159 = fbff4fbbff670000
TX: 0x149 = 0026026aaa046ff5
TX: 0x129 = 000000206096
TX: 0x1A9 = 00000c60a4
TX: 0x199 = 2f7d200004ffd062
TX: 0x169 = a4c4813812fdd177
TX: 0x119 = ff1ff4118dc7
TX: 0x109 = 00a0008000000027
🎯 RADAR STATUS (0x300): State=8, Scan=48, Power=131
TX: 0x199 = 2f7d200004ffe028
TX: 0x169 = a604824492fee157
TX: 0x119 = ff1ff4118ec8
TX: 0x109 = 00c0008000000047
TX: 0x159 = fbff4fcbff770000
TX: 0x149 = 0026026aaa047f05
TX: 0x129 = 0000002070a6
TX: 0x1A9 = 00000c70b4
TX: 0x209 = 00ff945213038000
TX: 0x219 = 000000000000b066
TX: 0x17C = 0040042c58000000
TX: 0x199 = 2f7d200004fff0e5
TX: 0x169 = a964824c92fff1d3
TX: 0x119 = ff1ff4118fc9
TX: 0x109 = 00e0008000000067
TX: 0x199 = 2f7d200004ff009a
TX: 0x169 = abc48258120102d4
TX: 0x119 = ff1ff41180ba
TX: 0x109 = 0000008000000087
TX: 0x159 = fbff4fdbff870000
TX: 0x149 = 0026026aaa048f15
TX: 0x129 = 0000002080b6
TX: 0x1A9 = 00000c80c4
TX: 0x199 = 2f7d200004ff1057
TX: 0x169 = ae04836012021231
TX: 0x119 = ff1ff41181bb
TX: 0x109 = 00200080000000a7
⚠️  ERROR CODE (0x3FF): 104
TX: 0x199 = 2f7d200004ff201d
TX: 0x169 = b04483681203228c
TX: 0x119 = ff1ff41182bc
TX: 0x109 = 00400080000000c7
TX: 0x159 = fbff4febff970000
TX: 0x149 = 0026026aaa049f25
TX: 0x129 = 0000002090c6
TX: 0x1A9 = 00000c90d4
TX: 0x199 = 2f7d200004ff30d0
TX: 0x169 = b3a483749204328c
TX: 0x119 = ff1ff41183bd
TX: 0x109 = 00600080000000e7
RX: 0x300 = 363883141e003000
CAN error: Could not read from serial device
CAN error: Could not read from serial device
TX: 0x199 = 2f7d200004ff4089
TX: 0x169 = b504847c12064289
TX: 0x119 = ff1ff41184be
TX: 0x109 = 0080008000000007
TX: 0x159 = fbff4ffbffa70000
TX: 0x149 = 0026026aaa04af35
TX: 0x129 = 00000020a0d6
TX: 0x1A9 = 00000ca0e4
TX: 0x199 = 2f7d200004ff5044
TX: 0x169 = b8448488120752e9
TX: 0x119 = ff1ff41185bf
TX: 0x109 = 00a0008000000027
TX: 0x199 = 2f7d200004ff600e
TX: 0x169 = baa48490920862e4
TX: 0x119 = ff1ff41186c0
TX: 0x109 = 00c0008000000047
TX: 0x159 = fbff4f0bffb70000
TX: 0x149 = 0026026aaa04bf45
TX: 0x129 = 00000020b0e6
TX: 0x1A9 = 00000cb0f4
⚠️  ERROR CODE (0x3FF): 112
TX: 0x199 = 2f7d200004ff70c3
TX: 0x169 = bce484989209723f
TX: 0x119 = ff1ff41187c1
TX: 0x109 = 00e0008000000067
TX: 0x199 = 2f7d200004ff80bc
TX: 0x169 = bf4485a4120b8241
TX: 0x119 = ff1ff41188c2
TX: 0x109 = 0000008000000087
TX: 0x159 = fbff4f1bffc70000
TX: 0x149 = 0026026aaa04cf55
TX: 0x129 = 00000020c0f6
TX: 0x1A9 = 00000cc004
TX: 0x209 = 00ff945213038000
TX: 0x219 = 000000000000c03f
TX: 0x17C = 0040042d5a000000
🎯 RADAR STATUS (0x300): State=9, Scan=64, Power=131
TX: 0x199 = 2f7d200004ff9071
TX: 0x169 = c28485ac120c929d
TX: 0x119 = ff1ff41189c3
TX: 0x109 = 00200080000000a7
TX: 0x199 = 2f7d200004ffa03b
TX: 0x169 = c4e485b8920da29c
TX: 0x119 = ff1ff4118ac4
TX: 0x109 = 00400080000000c7
TX: 0x159 = fbff4f2bffd70000
TX: 0x149 = 0026026aaa04df65
TX: 0x129 = 00000020d006
TX: 0x1A9 = 00000cd014
🎉 DYNAMIC SCANNING DETECTED! Radar is actively scanning!

📊 STATUS UPDATE (5.0s):
   Radar State: Not Present
   VIN Complete: 6/7
   Init Messages: 0
   Power Level: 143.3
   Scan Indices: 17 unique (last 20)
   Valid Objects: 0
   Error Codes: 16
   System Status Errors (0x3FF): 1 unique / 1 total
   Top error codes: 40:1 (UNKNOWN)
   Plant Mode Exit: ❌
   Dynamic Scanning: ✅
   Fully Active: ❌
TX: 0x199 = 2f7d200004ffb0f6
TX: 0x169 = c62486c0920eb2f8
TX: 0x119 = ff1ff4118bc5
TX: 0x109 = 00600080000000e7
⚠️  ERROR CODE (0x3FF): 136

⚠️  ACTIVATION INCOMPLETE

======================================================================
📊 DIAGNOSTIC SUMMARY
======================================================================
⏱️  Total Time: 5.0s
🔄 Init Messages (0x631): 0
📊 Status Messages (0x300): 51
📡 VIN Completion: 6/7
🎯 Valid Objects: 0
📈 Unique Scan Indices: 37
⚡ Max Power Level: 195
⚠️  Error Codes: 16
   0x3FF status: 1 unique / 1 total
   Top error codes: 40:1 (UNKNOWN)
      - 40: UNKNOWN (count 1) payloads: 322800

🔍 SPECIFIC ISSUES:
   ❌ No 0x631 initialization detected
      → Check radar power and CAN connections
   ❌ VIN transmission incomplete
      → Check 0x2B9 message transmission
   ❌ Plant mode not exited
      → Check radar position/EPAS configuration
   ❌ No valid objects detected
      → Check object detection logic

💡 RECOMMENDATIONS:
   1. Try different radarPosition values (0, 1, 2)
   2. Try different radarEpasType values (0, 1)
   3. Check physical radar mounting and connections
   4. Verify CAN bus termination
   5. Try longer activation duration
🛑 Tesla Radar Protocol Stopped
CAN error: Could not read from serial device

CAN interface closed
